/CLK (x=0.7) X,/CLK (x=0.7) Y,/D (x=0.7) X,/D (x=0.7) Y,/Q (x=0.7) X,/Q (x=0.7) Y
0,0,0,0,0,5.777742042180274e-08
3.90625e-14,0,3.90625e-14,0.002734375,3.90625e-14,3.08612594029269e-06
1.171875e-13,0,1.171875e-13,0.008203125,1.171875e-13,1.477298543651579e-05
1.5625e-13,0,1.5625e-13,0.0109375,1.5625e-13,2.14549342482182e-05
2.34375e-13,0,2.34375e-13,0.01640625,2.34375e-13,3.611098115719388e-05
3.906250000000001e-13,0,3.906250000000001e-13,0.02734375000000001,3.906250000000001e-13,6.448977832210444e-05
6.435485454761921e-13,0,6.435485454761921e-13,0.04504839818333345,6.435485454761921e-13,0.0001190315142825079
1.034778634215468e-12,0,1.034778634215468e-12,0.07243450439508278,1.034778634215468e-12,0.0001809297854188762
1.817238811694021e-12,0,1.817238811694021e-12,0.1272067168185815,1.817238811694021e-12,0.00027076484028924
3.382159166651125e-12,0,3.382159166651125e-12,0.2367511416655788,3.382159166651125e-12,0.0003490625738820198
6.19712683691566e-12,0,6.19712683691566e-12,0.4337988785840962,6.19712683691566e-12,0.000312108644368182
6.672485982301202e-12,0,6.672485982301202e-12,0.4670740187610841,6.672485982301202e-12,0.0002967026115766036
7.623204273072286e-12,0,7.623204273072286e-12,0.5336242991150599,7.623204273072286e-12,0.0002661085913440763
8.811602136536142e-12,0,8.811602136536142e-12,0.6168121495575299,8.811602136536142e-12,0.0002282908097181631
9.999999999999999e-12,0,9.999999999999999e-12,0.7,9.999999999999999e-12,0.0001889258651353192
1.014106229455898e-11,0,1.014106229455898e-11,0.7,1.014106229455898e-11,0.0001645915018070012
1.042318688367693e-11,0,1.042318688367693e-11,0.7,1.042318688367693e-11,0.0001095092994474056
1.083663285768547e-11,0,1.083663285768547e-11,0.7,1.083663285768547e-11,3.50564365272373e-05
1.094699107696086e-11,0,1.094699107696086e-11,0.7,1.094699107696086e-11,1.818815170149394e-05
1.116770751551164e-11,0,1.116770751551164e-11,0.7,1.116770751551164e-11,-1.537420480151617e-05
1.160914039261319e-11,0,1.160914039261319e-11,0.7,1.160914039261319e-11,-7.34502533789998e-05
1.21858325510056e-11,0,1.21858325510056e-11,0.7,1.21858325510056e-11,-0.0001358640977565183
1.247417863020181e-11,0,1.247417863020181e-11,0.7,1.247417863020181e-11,-0.0001614700852899294
1.305087078859422e-11,0,1.305087078859422e-11,0.7,1.305087078859422e-11,-0.0002041242299004548
1.420425510537905e-11,0,1.420425510537905e-11,0.7,1.420425510537905e-11,-0.000259463567567687
1.651102373894871e-11,0,1.651102373894871e-11,0.7,1.651102373894871e-11,-0.0003277746416216198
1.766440805573354e-11,0,1.766440805573354e-11,0.7,1.766440805573354e-11,-0.0003054937667762061
1.99711766893032e-11,0,1.99711766893032e-11,0.7,1.99711766893032e-11,-0.0002460237075991239
2.458471395644251e-11,0,2.458471395644251e-11,0.7,2.458471395644251e-11,-0.0001335693008870162
3.276485858392417e-11,0,3.276485858392417e-11,0.7,3.276485858392417e-11,-1.481436651909839e-05
4.327603731165067e-11,0,4.327603731165067e-11,0.7,4.327603731165067e-11,2.01439170933277e-05
5.751193768489621e-11,0,5.751193768489621e-11,0.7,5.751193768489621e-11,2.627046435839099e-05
7.428008331731119e-11,0,7.428008331731119e-11,0.7,7.428008331731119e-11,7.252492282866291e-06
9.646550481515379e-11,0,9.646550481515379e-11,0.7,9.646550481515379e-11,3.110751080367304e-06
1.289565117547637e-10,0,1.289565117547637e-10,0.7,1.289565117547637e-10,7.387497471335827e-07
1.712183848635759e-10,0,1.712183848635759e-10,0.7,1.712183848635759e-10,-1.06698649977411e-06
2.269841056545499e-10,0,2.269841056545499e-10,0.7,2.269841056545499e-10,-3.431738259156885e-07
2.989173184762123e-10,0,2.989173184762123e-10,0.7,2.989173184762123e-10,-7.091595262247915e-07
3.940774348096743e-10,0,3.940774348096743e-10,0.7,3.940774348096743e-10,-3.015735553607805e-07
5.188710640330473e-10,0,5.188710640330473e-10,0.7,5.188710640330473e-10,-6.273502160388705e-07
6.852288998238298e-10,0,6.852288998238298e-10,0.7,6.852288998238298e-10,-3.22431267978334e-07
9.063123778058747e-10,0,9.063123778058747e-10,0.7,9.063123778058747e-10,-6.108940104955678e-07
1.203875428739058e-09,0,1.203875428739058e-09,0.7,1.203875428739058e-09,-3.325325603711859e-07
1.602143740082628e-09,0,1.602143740082628e-09,0.7,1.602143740082628e-09,-6.035168587479604e-07
2.140615841720041e-09,0,2.140615841720041e-09,0.7,2.140615841720041e-09,-3.37632329858118e-07
2.864883794032001e-09,0,2.864883794032001e-09,0.7,2.864883794032001e-09,-5.997556106133275e-07
3.848529004550555e-09,0,3.848529004550555e-09,0.7,3.848529004550555e-09,-3.402289874828123e-07
5.177255297454672e-09,0,5.177255297454672e-09,0.7,5.177255297454672e-09,-5.977597574639184e-07
6.988458372910779e-09,0,6.988458372910779e-09,0.7,6.988458372910779e-09,-3.415806858929284e-07
9.4431437585501e-09,0,9.4431437585501e-09,0.7,9.4431437585501e-09,-5.966973703880617e-07
1.279909534896153e-08,0,1.279909534896153e-08,0.7,1.279909534896153e-08,-3.423057760489547e-07
1.679909534896153e-08,0,1.679909534896153e-08,0.7,1.679909534896153e-08,-5.961116136744838e-07
2.079909534896153e-08,0,2.079909534896153e-08,0.7,2.079909534896153e-08,-3.428367040944489e-07
2.479909534896153e-08,0,2.479909534896153e-08,0.7,2.479909534896153e-08,-5.955849852269093e-07
2.879909534896153e-08,0,2.879909534896153e-08,0.7,2.879909534896153e-08,-3.433683054357342e-07
3.279909534896153e-08,0,3.279909534896153e-08,0.7,3.279909534896153e-08,-5.950695134731026e-07
3.679909534896153e-08,0,3.679909534896153e-08,0.7,3.679909534896153e-08,-3.438819882846897e-07
4.079909534896153e-08,0,4.079909534896153e-08,0.7,4.079909534896153e-08,-5.945522280174683e-07
4.479909534896154e-08,0,4.479909534896154e-08,0.7,4.479909534896154e-08,-3.443928853160798e-07
4.879909534896154e-08,0,4.879909534896154e-08,0.7,4.879909534896154e-08,-5.940401403701512e-07
5.279909534896154e-08,0,5.279909534896154e-08,0.7,5.279909534896154e-08,-3.449080552674549e-07
5.679909534896155e-08,0,5.679909534896155e-08,0.7,5.679909534896155e-08,-5.93555835059573e-07
6.079909534896155e-08,0,6.079909534896155e-08,0.7,6.079909534896155e-08,-3.454014788472158e-07
6.479909534896154e-08,0,6.479909534896154e-08,0.7,6.479909534896154e-08,-5.930620201679753e-07
6.879909534896154e-08,0,6.879909534896154e-08,0.7,6.879909534896154e-08,-3.458922516724124e-07
7.279909534896154e-08,0,7.279909534896154e-08,0.7,7.279909534896154e-08,-5.925713423812206e-07
7.679909534896153e-08,0,7.679909534896153e-08,0.7,7.679909534896153e-08,-3.463801728544246e-07
8.079909534896153e-08,0,8.079909534896153e-08,0.7,8.079909534896153e-08,-5.920838639549595e-07
8.479909534896152e-08,0,8.479909534896152e-08,0.7,8.479909534896152e-08,-3.468650842352639e-07
8.879909534896152e-08,0,8.879909534896152e-08,0.7,8.879909534896152e-08,-5.915996545336909e-07
9.279909534896152e-08,0,9.279909534896152e-08,0.7,9.279909534896152e-08,-3.473468567300539e-07
9.679909534896151e-08,0,9.679909534896151e-08,0.7,9.679909534896151e-08,-5.911187834980034e-07
1.007990953489615e-07,0,1.007990953489615e-07,0.7,1.007990953489615e-07,-3.478253827141823e-07
1.047990953489615e-07,0,1.047990953489615e-07,0.7,1.047990953489615e-07,-5.906413163109825e-07
1.087990953489615e-07,0,1.087990953489615e-07,0.7,1.087990953489615e-07,-3.483005713910413e-07
1.127990953489615e-07,0,1.127990953489615e-07,0.7,1.127990953489615e-07,-5.901673098884458e-07
1.167990953489615e-07,0,1.167990953489615e-07,0.7,1.167990953489615e-07,-3.487723483735136e-07
1.207990953489615e-07,0,1.207990953489615e-07,0.7,1.207990953489615e-07,-5.896968212165897e-07
1.247990953489615e-07,0,1.247990953489615e-07,0.7,1.247990953489615e-07,-3.492406462006648e-07
1.287990953489615e-07,0,1.287990953489615e-07,0.7,1.287990953489615e-07,-5.892298966391531e-07
1.327990953489615e-07,0,1.327990953489615e-07,0.7,1.327990953489615e-07,-3.497054093020467e-07
1.367990953489615e-07,0,1.367990953489615e-07,0.7,1.367990953489615e-07,-5.887665771690734e-07
1.407990953489615e-07,0,1.407990953489615e-07,0.7,1.407990953489615e-07,-3.50166590987687e-07
1.447990953489616e-07,0,1.447990953489616e-07,0.7,1.447990953489616e-07,-5.883068977745149e-07
1.487990953489616e-07,0,1.487990953489616e-07,0.7,1.487990953489616e-07,-3.506241539954706e-07
1.527990953489616e-07,0,1.527990953489616e-07,0.7,1.527990953489616e-07,-5.878508847347162e-07
1.567990953489616e-07,0,1.567990953489616e-07,0.7,1.567990953489616e-07,-3.510780661992168e-07
1.607990953489616e-07,0,1.607990953489616e-07,0.7,1.607990953489616e-07,-5.873985642749804e-07
1.647990953489616e-07,0,1.647990953489616e-07,0.7,1.647990953489616e-07,-3.515283014124245e-07
1.687990953489616e-07,0,1.687990953489616e-07,0.7,1.687990953489616e-07,-5.869499551175563e-07
1.727990953489616e-07,0,1.727990953489616e-07,0.7,1.727990953489616e-07,-3.51974839271634e-07
1.767990953489616e-07,0,1.767990953489616e-07,0.7,1.767990953489616e-07,-5.8650507183503e-07
1.8e-07,0,1.8e-07,0.7,1.8e-07,-3.524726985547297e-07
1.800000390625e-07,0.002734375000191284,1.800000390625e-07,0.7,1.800000390625e-07,-4.072150656933613e-07
1.800001171875e-07,0.008203125000573852,1.800001171875e-07,0.7,1.800001171875e-07,-2.948663064425009e-07
1.800002734375e-07,0.01914062500133899,1.800002734375e-07,0.7,1.800002734375e-07,3.07379136260681e-07
1.800004770015972e-07,0.0333901118037396,1.800004770015972e-07,0.7,1.800004770015972e-07,9.774364643165613e-07
1.800006962610304e-07,0.04873827212927118,1.800006962610304e-07,0.7,1.800006962610304e-07,1.632700989370277e-06
1.800011347798969e-07,0.07943459278033434,1.800011347798969e-07,0.7,1.800011347798969e-07,2.006991098288845e-06
1.800020118176297e-07,0.1408272340824607,1.800020118176297e-07,0.7,1.800020118176297e-07,3.359659518988084e-06
1.800035573324747e-07,0.2490132732297855,1.800035573324747e-07,0.7,1.800035573324747e-07,4.771912947571466e-06
1.800065902011182e-07,0.4613140782727736,1.800065902011182e-07,0.7,1.800065902011182e-07,3.855834661709296e-06
1.8001e-07,0.7,1.8001e-07,0.7,1.8001e-07,-1.660321586077416e-06
1.80010177270092e-07,0.7,1.80010177270092e-07,0.7,1.80010177270092e-07,-2.43028850587045e-06
1.80010265905138e-07,0.7,1.80010265905138e-07,0.7,1.80010265905138e-07,-2.822874342588582e-06
1.8001044317523e-07,0.7,1.8001044317523e-07,0.7,1.8001044317523e-07,-3.614396849060739e-06
1.800107977154141e-07,0.7,1.800107977154141e-07,0.7,1.800107977154141e-07,-5.037939072210431e-06
1.800111958038609e-07,0.7,1.800111958038609e-07,0.7,1.800111958038609e-07,-6.997031222795337e-06
1.800113948480843e-07,0.7,1.800113948480843e-07,0.7,1.800113948480843e-07,-7.761074634481725e-06
1.80011792936531e-07,0.7,1.80011792936531e-07,0.7,1.80011792936531e-07,-8.905250804458687e-06
1.800125891134246e-07,0.7,1.800125891134246e-07,0.7,1.800125891134246e-07,-1.070694356267883e-05
1.800141814672117e-07,0.7,1.800141814672117e-07,0.7,1.800141814672117e-07,-1.210969952091842e-05
1.800173661747858e-07,0.7,1.800173661747858e-07,0.7,1.800173661747858e-07,-1.086599581608051e-05
1.800231589630192e-07,0.7,1.800231589630192e-07,0.7,1.800231589630192e-07,-5.882951966587645e-06
1.800303996580215e-07,0.7,1.800303996580215e-07,0.7,1.800303996580215e-07,-1.440126676939495e-06
1.800405187133516e-07,0.7,1.800405187133516e-07,0.7,1.800405187133516e-07,1.656034764310411e-06
1.800559476187697e-07,0.7,1.800559476187697e-07,0.7,1.800559476187697e-07,4.117278184313788e-06
1.800667998677189e-07,0.7,1.800667998677189e-07,0.7,1.800667998677189e-07,6.836666078295098e-06
1.800764899126071e-07,0.7,1.800764899126071e-07,0.7,1.800764899126071e-07,1.007885854345731e-05
1.800848072027148e-07,0.7,1.800848072027148e-07,0.7,1.800848072027148e-07,1.117905371908496e-05
1.800923825792623e-07,0.7,1.800923825792623e-07,0.7,1.800923825792623e-07,4.887946105304886e-06
1.801002460653856e-07,0.7,1.801002460653856e-07,0.7,1.801002460653856e-07,-1.511680027338173e-06
1.801076890487771e-07,0.7,1.801076890487771e-07,0.7,1.801076890487771e-07,-6.884036695094084e-06
1.801142969334118e-07,0.7,1.801142969334118e-07,0.7,1.801142969334118e-07,-1.225354634071474e-05
1.801204649347923e-07,0.7,1.801204649347923e-07,0.7,1.801204649347923e-07,-1.73611283143888e-05
1.801255005606949e-07,0.7,1.801255005606949e-07,0.7,1.801255005606949e-07,-1.806506681780575e-05
1.801299443186666e-07,0.7,1.801299443186666e-07,0.7,1.801299443186666e-07,-1.561807623412087e-05
1.801346981460141e-07,0.7,1.801346981460141e-07,0.7,1.801346981460141e-07,-1.152249180651447e-05
1.801385566074866e-07,0.7,1.801385566074866e-07,0.7,1.801385566074866e-07,-1.954017165276225e-05
1.801427922140352e-07,0.7,1.801427922140352e-07,0.7,1.801427922140352e-07,-3.787976316792783e-05
1.801478770341265e-07,0.7,1.801478770341265e-07,0.7,1.801478770341265e-07,-5.824231427615417e-05
1.801525813644721e-07,0.7,1.801525813644721e-07,0.7,1.801525813644721e-07,-5.67242199660827e-05
1.801575367528734e-07,0.7,1.801575367528734e-07,0.7,1.801575367528734e-07,-3.818887238067046e-05
1.801626142414331e-07,0.7,1.801626142414331e-07,0.7,1.801626142414331e-07,-1.754186945811587e-05
1.801694830358851e-07,0.7,1.801694830358851e-07,0.7,1.801694830358851e-07,-4.736267733977022e-07
1.801800141038453e-07,0.7,1.801800141038453e-07,0.7,1.801800141038453e-07,6.858548756237114e-06
1.801975919096784e-07,0.7,1.801975919096784e-07,0.7,1.801975919096784e-07,2.243742613283463e-06
1.802284472326914e-07,0.7,1.802284472326914e-07,0.7,1.802284472326914e-07,-7.467283129900765e-07
1.802714494807241e-07,0.7,1.802714494807241e-07,0.7,1.802714494807241e-07,1.630514689252827e-05
1.802957393773221e-07,0.7,1.802957393773221e-07,0.7,1.802957393773221e-07,4.694018752636628e-05
1.803160244600767e-07,0.7,1.803160244600767e-07,0.7,1.803160244600767e-07,0.0001054025201328857
1.803370165864264e-07,0.7,1.803370165864264e-07,0.7,1.803370165864264e-07,0.0001789085581760253
1.803562224682936e-07,0.7,1.803562224682936e-07,0.7,1.803562224682936e-07,0.0003060563324019021
1.80370660721403e-07,0.7,1.80370660721403e-07,0.7,1.80370660721403e-07,0.0004835150253695458
1.803829757060794e-07,0.7,1.803829757060794e-07,0.7,1.803829757060794e-07,0.0007356340372890362
1.80396183916741e-07,0.7,1.80396183916741e-07,0.7,1.80396183916741e-07,0.001055568222102343
1.804072670644317e-07,0.7,1.804072670644317e-07,0.7,1.804072670644317e-07,0.001143750547223931
1.804219885795205e-07,0.7,1.804219885795205e-07,0.7,1.804219885795205e-07,0.0004731691471786995
1.804335081872704e-07,0.7,1.804335081872704e-07,0.7,1.804335081872704e-07,-0.001731214215422609
1.804432843940245e-07,0.7,1.804432843940245e-07,0.7,1.804432843940245e-07,-0.005680558466164761
1.804525951699986e-07,0.7,1.804525951699986e-07,0.7,1.804525951699986e-07,-0.01179927371104604
1.804649198466646e-07,0.7,1.804649198466646e-07,0.7,1.804649198466646e-07,-0.02732240213575796
1.804748895310881e-07,0.7,1.804748895310881e-07,0.7,1.804748895310881e-07,-0.04875748493039421
1.80486349342462e-07,0.7,1.80486349342462e-07,0.7,1.80486349342462e-07,-0.0780042032439482
1.804974448657528e-07,0.7,1.804974448657528e-07,0.7,1.804974448657528e-07,-0.09231134348590299
1.805037224328764e-07,0.7,1.805037224328764e-07,0.7,1.805037224328764e-07,-0.08111223671167735
1.8051e-07,0.7,1.8051e-07,0.7,1.8051e-07,-0.04241275401277384
1.80510078125e-07,0.6945312499980468,1.80510078125e-07,0.7,1.80510078125e-07,-0.04172420198911829
1.80510234375e-07,0.6835937499972816,1.80510234375e-07,0.7,1.80510234375e-07,-0.04033614238954965
1.805103125e-07,0.6781249999968991,1.805103125e-07,0.7,1.805103125e-07,-0.0396338534999193
1.805104687500001e-07,0.6671874999961339,1.805104687500001e-07,0.7,1.805104687500001e-07,-0.03821250258132604
1.805107107620245e-07,0.650246658282249,1.805107107620245e-07,0.7,1.805107107620245e-07,-0.0359667773583602
1.805110825678907e-07,0.6242202476490227,1.805110825678907e-07,0.7,1.805110825678907e-07,-0.03241172339098878
1.805118261796231e-07,0.5721674263825701,1.805118261796231e-07,0.7,1.805118261796231e-07,-0.02491874970596021
1.805133134030879e-07,0.468061783849665,1.805133134030879e-07,0.7,1.805133134030879e-07,-0.00839754573746334
1.805161540619245e-07,0.2692156652817702,1.805161540619245e-07,0.7,1.805161540619245e-07,0.02876774088326929
1.805183656079326e-07,0.1144074447144084,1.805183656079326e-07,0.7,1.805183656079326e-07,0.06258616705072154
1.8052e-07,0,1.8052e-07,0.7,1.8052e-07,0.0901222129127074
1.805200304206832e-07,0,1.805200304206832e-07,0.7,1.805200304206832e-07,0.09065450568807056
1.805200912620495e-07,0,1.805200912620495e-07,0.7,1.805200912620495e-07,0.09172050784905961
1.805202129447821e-07,0,1.805202129447821e-07,0.7,1.805202129447821e-07,0.09386068317943937
1.805203822398533e-07,0,1.805203822398533e-07,0.7,1.805203822398533e-07,0.0968558671256623
1.805205662996349e-07,0,1.805205662996349e-07,0.7,1.805205662996349e-07,0.1001354387294337
1.805209344191979e-07,0,1.805209344191979e-07,0.7,1.805209344191979e-07,0.106765005800664
1.80521670658324e-07,0,1.80521670658324e-07,0.7,1.80521670658324e-07,0.1202974434144924
1.805230284999215e-07,0,1.805230284999215e-07,0.7,1.805230284999215e-07,0.1461550049644392
1.805257441831165e-07,0,1.805257441831165e-07,0.7,1.805257441831165e-07,0.2008829420725375
1.805298753052015e-07,0,1.805298753052015e-07,0.7,1.805298753052015e-07,0.2897102903476494
1.805349858179951e-07,0,1.805349858179951e-07,0.7,1.805349858179951e-07,0.403631585369851
1.805408148905532e-07,0,1.805408148905532e-07,0.7,1.805408148905532e-07,0.5293594211810945
1.805465026744156e-07,0,1.805465026744156e-07,0.7,1.805465026744156e-07,0.6282319595231157
1.805511962585978e-07,0,1.805511962585978e-07,0.7,1.805511962585978e-07,0.6717177436054607
1.805553492195452e-07,0,1.805553492195452e-07,0.7,1.805553492195452e-07,0.6865857855319411
1.805593461157385e-07,0,1.805593461157385e-07,0.7,1.805593461157385e-07,0.6926259918661899
1.805632920722759e-07,0,1.805632920722759e-07,0.7,1.805632920722759e-07,0.6956756391236488
1.80568482221347e-07,0,1.80568482221347e-07,0.7,1.80568482221347e-07,0.6976618046446235
1.805763444873478e-07,0,1.805763444873478e-07,0.7,1.805763444873478e-07,0.6989334935067979
1.805827701692915e-07,0,1.805827701692915e-07,0.7,1.805827701692915e-07,0.6993714162466057
1.80589825514651e-07,0,1.80589825514651e-07,0.7,1.80589825514651e-07,0.6996366153731226
1.805972394451269e-07,0,1.805972394451269e-07,0.7,1.805972394451269e-07,0.6997936862224955
1.806053203378973e-07,0,1.806053203378973e-07,0.7,1.806053203378973e-07,0.6998879788028843
1.806138323350045e-07,0,1.806138323350045e-07,0.7,1.806138323350045e-07,0.6999422871161102
1.80624401872537e-07,0,1.80624401872537e-07,0.7,1.80624401872537e-07,0.6999745900991374
1.806363019496603e-07,0,1.806363019496603e-07,0.7,1.806363019496603e-07,0.6999832954002363
1.806467260080487e-07,0,1.806467260080487e-07,0.7,1.806467260080487e-07,0.6999859907285527
1.806559913141378e-07,0,1.806559913141378e-07,0.7,1.806559913141378e-07,0.6999907373940087
1.806663330446636e-07,0,1.806663330446636e-07,0.7,1.806663330446636e-07,0.6999955789562798
1.806812023354413e-07,0,1.806812023354413e-07,0.7,1.806812023354413e-07,0.6999996433531239
1.807025441554505e-07,0,1.807025441554505e-07,0.7,1.807025441554505e-07,0.7000009116729035
1.807314465949909e-07,0,1.807314465949909e-07,0.7,1.807314465949909e-07,0.7000005717748797
1.807729002448794e-07,0,1.807729002448794e-07,0.7,1.807729002448794e-07,0.7000002231058424
1.808418185782301e-07,0,1.808418185782301e-07,0.7,1.808418185782301e-07,0.7000005999002609
1.80920909289115e-07,0,1.80920909289115e-07,0.7,1.80920909289115e-07,0.7000004307760048
1.81e-07,0,1.81e-07,0.7,1.81e-07,0.7000005877680006
1.810000390625e-07,0.002734374999887295,1.810000390625e-07,0.7,1.810000390625e-07,0.7000005972075166
1.810001171875e-07,0.008203125000269864,1.810001171875e-07,0.7,1.810001171875e-07,0.7000007269235411
1.810002734375e-07,0.019140625001035,1.810002734375e-07,0.7,1.810002734375e-07,0.7000013373367164
1.810004771631431e-07,0.03340142001727156,1.810004771631431e-07,0.7,1.810004771631431e-07,0.7000022028381704
1.810006968563048e-07,0.04877994133326631,1.810006968563048e-07,0.7,1.810006968563048e-07,0.7000030407143683
1.810011362426281e-07,0.07953698396525581,1.810011362426281e-07,0.7,1.810011362426281e-07,0.700004508104208
