/CLK (x=0.6) X,/CLK (x=0.6) Y,/D (x=0.6) X,/D (x=0.6) Y,/Q (x=0.6) X,/Q (x=0.6) Y
0,0,0,0,0,1.110440528831699e-07
3.90625e-14,0,3.90625e-14,0.00234375,3.90625e-14,2.629817836385758e-06
1.171875e-13,0,1.171875e-13,0.00703125,1.171875e-13,1.215208509565974e-05
1.5625e-13,0,1.5625e-13,0.009375000000000001,1.5625e-13,1.753476292612036e-05
2.34375e-13,0,2.34375e-13,0.0140625,2.34375e-13,2.933943058228589e-05
3.906250000000001e-13,0,3.906250000000001e-13,0.02343750000000001,3.906250000000001e-13,5.243704743196078e-05
6.408644611947055e-13,0,6.408644611947055e-13,0.03845186767168233,6.408644611947055e-13,8.797656494818255e-05
1.077856913185686e-12,0,1.077856913185686e-12,0.06467141479114116,1.077856913185686e-12,0.0001575844327844306
1.951841817167647e-12,0,1.951841817167647e-12,0.1171105090300588,1.951841817167647e-12,0.0002619562244287524
3.69981162513157e-12,0,3.69981162513157e-12,0.2219886975078942,3.69981162513157e-12,0.000407138308804761
6.903888348068561e-12,0,6.903888348068561e-12,0.4142333008841137,6.903888348068561e-12,0.0005415152025254396
9.999999999999999e-12,0,9.999999999999999e-12,0.6,9.999999999999999e-12,0.0005816892152029446
1.02193296502511e-11,0,1.02193296502511e-11,0.6,1.02193296502511e-11,0.0005559013159294226
1.065798895075332e-11,0,1.065798895075332e-11,0.6,1.065798895075332e-11,0.0004976074692205879
1.084133888987988e-11,0,1.084133888987988e-11,0.6,1.084133888987988e-11,0.0004731713525137291
1.120803876813302e-11,0,1.120803876813302e-11,0.6,1.120803876813302e-11,0.0004280497291283493
1.184423037961929e-11,0,1.184423037961929e-11,0.6,1.184423037961929e-11,0.00035416720548363
1.266319831015836e-11,0,1.266319831015836e-11,0.6,1.266319831015836e-11,0.0002695079438076085
1.306021907725983e-11,0,1.306021907725983e-11,0.6,1.306021907725983e-11,0.0002318547979025332
1.385426061146277e-11,0,1.385426061146277e-11,0.6,1.385426061146277e-11,0.0001634523379770124
1.544234367986865e-11,0,1.544234367986865e-11,0.6,1.544234367986865e-11,4.898031967236349e-05
1.608251525895054e-11,0,1.608251525895054e-11,0.6,1.608251525895054e-11,1.087635206425333e-05
1.736285841711433e-11,0,1.736285841711433e-11,0.6,1.736285841711433e-11,-6.193014630379166e-05
1.992354473344191e-11,0,1.992354473344191e-11,0.6,1.992354473344191e-11,-0.0001661481072589234
2.464784454358415e-11,0,2.464784454358415e-11,0.6,2.464784454358415e-11,-0.000255515492401357
3.384858388972515e-11,0,3.384858388972515e-11,0.6,3.384858388972515e-11,-0.0002464875376562139
4.486559757476e-11,0,4.486559757476e-11,0.6,4.486559757476e-11,-0.0001378283679693944
5.920217872444586e-11,0,5.920217872444586e-11,0.6,5.920217872444586e-11,-4.858832817719807e-05
7.84153291598138e-11,0,7.84153291598138e-11,0.6,7.84153291598138e-11,1.68462276858844e-05
1.079469138910066e-10,0,1.079469138910066e-10,0.6,1.079469138910066e-10,1.679327526666008e-05
1.432503264968516e-10,0,1.432503264968516e-10,0.6,1.432503264968516e-10,1.445299855011652e-05
1.89071336351467e-10,0,1.89071336351467e-10,0.6,1.89071336351467e-10,2.290413646541557e-06
2.530492432841414e-10,0,2.530492432841414e-10,0.6,2.530492432841414e-10,3.116453148014646e-06
3.464372794561097e-10,0,3.464372794561097e-10,0.6,3.464372794561097e-10,-1.107664268147076e-06
4.618576855496188e-10,0,4.618576855496188e-10,0.6,4.618576855496188e-10,7.108454481295053e-07
6.10965909431527e-10,0,6.10965909431527e-10,0.6,6.10965909431527e-10,-5.013770699102478e-07
8.136521062167172e-10,0,8.136521062167172e-10,0.6,8.136521062167172e-10,5.110431530971058e-07
1.081079022886901e-09,0,1.081079022886901e-09,0.6,1.081079022886901e-09,-2.595450400315765e-07
1.434016741526661e-09,0,1.434016741526661e-09,0.6,1.434016741526661e-09,3.959125502967783e-07
1.902290916051992e-09,0,1.902290916051992e-09,0.6,1.902290916051992e-09,-1.806566202878351e-07
2.527480238517467e-09,0,2.527480238517467e-09,0.6,2.527480238517467e-09,3.417479107520024e-07
3.3672852523774e-09,0,3.3672852523774e-09,0.6,3.3672852523774e-09,-1.433121846209344e-07
4.491582081161086e-09,0,4.491582081161086e-09,0.6,4.491582081161086e-09,3.147401344104655e-07
6.005673550683513e-09,0,6.005673550683513e-09,0.6,6.005673550683513e-09,-1.243079404062116e-07
8.037190785660846e-09,0,8.037190785660846e-09,0.6,8.037190785660846e-09,3.007140509777916e-07
1.078192677968017e-08,0,1.078192677968017e-08,0.6,1.078192677968017e-08,-1.142828187e-07
1.447417496990571e-08,0,1.447417496990571e-08,0.6,1.447417496990571e-08,2.932648768898083e-07
1.847417496990571e-08,0,1.847417496990571e-08,0.6,1.847417496990571e-08,-1.083360298797006e-07
2.247417496990571e-08,0,2.247417496990571e-08,0.6,2.247417496990571e-08,2.875560687540326e-07
2.647417496990571e-08,0,2.647417496990571e-08,0.6,2.647417496990571e-08,-1.027177743700412e-07
3.047417496990571e-08,0,3.047417496990571e-08,0.6,3.047417496990571e-08,2.819730955524957e-07
3.447417496990571e-08,0,3.447417496990571e-08,0.6,3.447417496990571e-08,-9.720253263558672e-08
3.847417496990571e-08,0,3.847417496990571e-08,0.6,3.847417496990571e-08,2.765050968534161e-07
4.247417496990571e-08,0,4.247417496990571e-08,0.6,4.247417496990571e-08,-9.179369666784756e-08
4.647417496990572e-08,0,4.647417496990572e-08,0.6,4.647417496990572e-08,2.711476382833863e-07
5.047417496990572e-08,0,5.047417496990572e-08,0.6,5.047417496990572e-08,-8.649128661602313e-08
5.447417496990572e-08,0,5.447417496990572e-08,0.6,5.447417496990572e-08,2.658978232348871e-07
5.847417496990572e-08,0,5.847417496990572e-08,0.6,5.847417496990572e-08,-8.12943324475568e-08
6.247417496990572e-08,0,6.247417496990572e-08,0.6,6.247417496990572e-08,2.60753614000904e-07
6.647417496990572e-08,0,6.647417496990572e-08,0.6,6.647417496990572e-08,-7.620131739412531e-08
7.047417496990571e-08,0,7.047417496990571e-08,0.6,7.047417496990571e-08,2.557126413609481e-07
7.447417496990571e-08,0,7.447417496990571e-08,0.6,7.447417496990571e-08,-7.121053589690213e-08
7.84741749699057e-08,0,7.84741749699057e-08,0.6,7.84741749699057e-08,2.507730475845789e-07
8.24741749699057e-08,0,8.24741749699057e-08,0.6,8.24741749699057e-08,-6.632017601284211e-08
8.64741749699057e-08,0,8.64741749699057e-08,0.6,8.64741749699057e-08,2.459328295235193e-07
9.047417496990569e-08,0,9.047417496990569e-08,0.6,9.047417496990569e-08,-6.15282780971408e-08
9.447417496990569e-08,0,9.447417496990569e-08,0.6,9.447417496990569e-08,2.411902280820074e-07
9.847417496990569e-08,0,9.847417496990569e-08,0.6,9.847417496990569e-08,-5.683335814022674e-08
1.024741749699057e-07,0,1.024741749699057e-07,0.6,1.024741749699057e-07,2.365437494398559e-07
1.064741749699057e-07,0,1.064741749699057e-07,0.6,1.064741749699057e-07,-5.223391692469553e-08
1.104741749699057e-07,0,1.104741749699057e-07,0.6,1.104741749699057e-07,2.31991868159401e-07
1.144741749699057e-07,0,1.144741749699057e-07,0.6,1.144741749699057e-07,-4.772834608886074e-08
1.184741749699057e-07,0,1.184741749699057e-07,0.6,1.184741749699057e-07,2.275329526612658e-07
1.224741749699057e-07,0,1.224741749699057e-07,0.6,1.224741749699057e-07,-4.331498581129309e-08
1.264741749699057e-07,0,1.264741749699057e-07,0.6,1.264741749699057e-07,2.231653334646739e-07
1.304741749699057e-07,0,1.304741749699057e-07,0.6,1.304741749699057e-07,-3.899211411036663e-08
1.344741749699057e-07,0,1.344741749699057e-07,0.6,1.344741749699057e-07,2.188872800184217e-07
1.384741749699057e-07,0,1.384741749699057e-07,0.6,1.384741749699057e-07,-3.475796613951828e-08
1.424741749699057e-07,0,1.424741749699057e-07,0.6,1.424741749699057e-07,2.146969829323134e-07
1.464741749699057e-07,0,1.464741749699057e-07,0.6,1.464741749699057e-07,-3.061068165102957e-08
1.504741749699057e-07,0,1.504741749699057e-07,0.6,1.504741749699057e-07,2.105925465195844e-07
1.544741749699058e-07,0,1.544741749699058e-07,0.6,1.544741749699058e-07,-2.654831756900531e-08
1.584741749699058e-07,0,1.584741749699058e-07,0.6,1.584741749699058e-07,2.065721261700029e-07
1.624741749699058e-07,0,1.624741749699058e-07,0.6,1.624741749699058e-07,-2.25691975771886e-08
1.664741749699058e-07,0,1.664741749699058e-07,0.6,1.664741749699058e-07,2.026341667263589e-07
1.704741749699058e-07,0,1.704741749699058e-07,0.6,1.704741749699058e-07,-1.867182147373966e-08
1.744741749699058e-07,0,1.744741749699058e-07,0.6,1.744741749699058e-07,1.987771643042674e-07
1.772370874849529e-07,0,1.772370874849529e-07,0.6,1.772370874849529e-07,-1.401085752973471e-08
1.8e-07,0,1.8e-07,0.6,1.8e-07,1.933333483714308e-07
1.800000390625e-07,0.002343750000163958,1.800000390625e-07,0.6,1.800000390625e-07,2.684307430021425e-07
1.800001171875e-07,0.007031250000491873,1.800001171875e-07,0.6,1.800001171875e-07,3.752662393241158e-07
1.800002734375e-07,0.0164062500011477,1.800002734375e-07,0.6,1.800002734375e-07,6.215960080970586e-07
1.800004683671976e-07,0.02810203185604035,1.800004683671976e-07,0.6,1.800004683671976e-07,9.693455859810345e-07
1.800006880871028e-07,0.04128522616726817,1.800006880871028e-07,0.6,1.800006880871028e-07,1.323670990657754e-06
1.800011275269132e-07,0.06765161478972379,1.800011275269132e-07,0.6,1.800011275269132e-07,2.036204270191494e-06
1.800020064065339e-07,0.1203843920346351,1.800020064065339e-07,0.6,1.800020064065339e-07,3.277355343090359e-06
1.80003564255637e-07,0.2138553382225666,1.80003564255637e-07,0.6,1.80003564255637e-07,4.902544702695974e-06
1.800066295251911e-07,0.3977715114654839,1.800066295251911e-07,0.6,1.800066295251911e-07,6.597428735340818e-06
1.8001e-07,0.6,1.8001e-07,0.6,1.8001e-07,5.983284364537024e-06
1.800102704458642e-07,0.6,1.800102704458642e-07,0.6,1.800102704458642e-07,5.509846863169843e-06
1.800104056687963e-07,0.6,1.800104056687963e-07,0.6,1.800104056687963e-07,5.256102998639581e-06
1.800106761146605e-07,0.6,1.800106761146605e-07,0.6,1.800106761146605e-07,4.730351159772467e-06
1.800112170063889e-07,0.6,1.800112170063889e-07,0.6,1.800112170063889e-07,3.728955114872271e-06
1.800113751892344e-07,0.6,1.800113751892344e-07,0.6,1.800113751892344e-07,3.444028676863681e-06
1.800116915549254e-07,0.6,1.800116915549254e-07,0.6,1.800116915549254e-07,2.891375587868941e-06
1.800123242863074e-07,0.6,1.800123242863074e-07,0.6,1.800123242863074e-07,1.786509284320954e-06
1.800135396018088e-07,0.6,1.800135396018088e-07,0.6,1.800135396018088e-07,-1.178249664596067e-07
1.800159702328117e-07,0.6,1.800159702328117e-07,0.6,1.800159702328117e-07,-3.289486208138212e-06
1.800208314948175e-07,0.6,1.800208314948175e-07,0.6,1.800208314948175e-07,-6.716834795694251e-06
1.800304169470279e-07,0.6,1.800304169470279e-07,0.6,1.800304169470279e-07,-6.907328002400324e-06
1.800444250247394e-07,0.6,1.800444250247394e-07,0.6,1.800444250247394e-07,-3.249026245637385e-06
1.800619095409556e-07,0.6,1.800619095409556e-07,0.6,1.800619095409556e-07,-1.874429012877281e-07
1.800856043949574e-07,0.6,1.800856043949574e-07,0.6,1.800856043949574e-07,1.249055230478625e-06
1.801247636750352e-07,0.6,1.801247636750352e-07,0.6,1.801247636750352e-07,1.729890611636159e-06
1.801599328729473e-07,0.6,1.801599328729473e-07,0.6,1.801599328729473e-07,2.140465580174631e-06
1.80193084977824e-07,0.6,1.80193084977824e-07,0.6,1.80193084977824e-07,4.170598072106484e-06
1.802184287740161e-07,0.6,1.802184287740161e-07,0.6,1.802184287740161e-07,5.072790378773327e-06
1.802427386598165e-07,0.6,1.802427386598165e-07,0.6,1.802427386598165e-07,3.478823451057618e-06
1.802631301877739e-07,0.6,1.802631301877739e-07,0.6,1.802631301877739e-07,1.04185505301607e-06
1.802852118028973e-07,0.6,1.802852118028973e-07,0.6,1.802852118028973e-07,-2.009219398513501e-06
1.803043555888197e-07,0.6,1.803043555888197e-07,0.6,1.803043555888197e-07,-3.735815407843937e-06
1.803264767357561e-07,0.6,1.803264767357561e-07,0.6,1.803264767357561e-07,-6.701525166270304e-06
1.803428104061302e-07,0.6,1.803428104061302e-07,0.6,1.803428104061302e-07,-9.545087611610733e-06
1.803581650797929e-07,0.6,1.803581650797929e-07,0.6,1.803581650797929e-07,-8.292566024312429e-06
1.803692587195149e-07,0.6,1.803692587195149e-07,0.6,1.803692587195149e-07,-6.261074130610259e-06
1.803816411855924e-07,0.6,1.803816411855924e-07,0.6,1.803816411855924e-07,-7.348514031836804e-06
1.803925574452826e-07,0.6,1.803925574452826e-07,0.6,1.803925574452826e-07,-1.228784727769858e-05
1.804052456593964e-07,0.6,1.804052456593964e-07,0.6,1.804052456593964e-07,-2.584525385677971e-05
1.804227412379284e-07,0.6,1.804227412379284e-07,0.6,1.804227412379284e-07,-2.942165874192904e-05
1.804385970324095e-07,0.6,1.804385970324095e-07,0.6,1.804385970324095e-07,-1.626387435783401e-05
1.804530306938185e-07,0.6,1.804530306938185e-07,0.6,1.804530306938185e-07,-3.682120858908505e-06
1.80469325002801e-07,0.6,1.80469325002801e-07,0.6,1.80469325002801e-07,2.851321335781521e-06
1.804896625014005e-07,0.6,1.804896625014005e-07,0.6,1.804896625014005e-07,4.440169990992269e-06
1.8051e-07,0.6,1.8051e-07,0.6,1.8051e-07,3.295621096757825e-06
1.805100390625e-07,0.5976562499984898,1.805100390625e-07,0.6,1.805100390625e-07,3.269324132488442e-06
1.805101171875e-07,0.5929687499981618,1.805101171875e-07,0.6,1.805101171875e-07,3.190275496511194e-06
1.8051015625e-07,0.5906249999979979,1.8051015625e-07,0.6,1.8051015625e-07,3.134291676426146e-06
1.80510234375e-07,0.58593749999767,1.80510234375e-07,0.6,1.80510234375e-07,3.021196782557182e-06
1.805103713015887e-07,0.5777219046784088,1.805103713015887e-07,0.6,1.805103713015887e-07,2.827748585493146e-06
1.805106188948079e-07,0.5628663115262293,1.805106188948079e-07,0.6,1.805106188948079e-07,2.488931682604013e-06
1.805111140812463e-07,0.5331551252218705,1.805111140812463e-07,0.6,1.805111140812463e-07,1.856914848854699e-06
1.805121044541231e-07,0.4737327526131527,1.805121044541231e-07,0.6,1.805121044541231e-07,7.569427877877259e-07
1.805140851998767e-07,0.3548880073957172,1.805140851998767e-07,0.6,1.805140851998767e-07,-7.890054795622981e-07
1.805170425999384e-07,0.1774440036960512,1.805170425999384e-07,0.6,1.805170425999384e-07,-1.732569974753517e-06
1.8052e-07,0,1.8052e-07,0.6,1.8052e-07,-5.128394447789758e-07
1.805202033100824e-07,0,1.805202033100824e-07,0.6,1.805202033100824e-07,-1.650621361658042e-07
1.805206099302472e-07,0,1.805206099302472e-07,0.6,1.805206099302472e-07,6.289322928714309e-07
1.805213202261918e-07,0,1.805213202261918e-07,0.6,1.805213202261918e-07,1.960292326489931e-06
1.805218936926517e-07,0,1.805218936926517e-07,0.6,1.805218936926517e-07,2.897915516660925e-06
1.805221339180841e-07,0,1.805221339180841e-07,0.6,1.805221339180841e-07,3.28146652717108e-06
1.80522614368949e-07,0,1.80522614368949e-07,0.6,1.80522614368949e-07,3.975162672673268e-06
1.805234395954443e-07,0,1.805234395954443e-07,0.6,1.805234395954443e-07,5.038026953144724e-06
1.805237071400067e-07,0,1.805237071400067e-07,0.6,1.805237071400067e-07,5.34444072725336e-06
1.805242422291314e-07,0,1.805242422291314e-07,0.6,1.805242422291314e-07,5.912202785812303e-06
1.805253124073809e-07,0,1.805253124073809e-07,0.6,1.805253124073809e-07,6.879994744634836e-06
1.805271536393825e-07,0,1.805271536393825e-07,0.6,1.805271536393825e-07,8.090868825043667e-06
1.805308361033857e-07,0,1.805308361033857e-07,0.6,1.805308361033857e-07,8.876486303758369e-06
1.80538201031392e-07,0,1.80538201031392e-07,0.6,1.80538201031392e-07,6.833499312967946e-06
1.805484142936665e-07,0,1.805484142936665e-07,0.6,1.805484142936665e-07,1.786637677588615e-06
1.805625061309104e-07,0,1.805625061309104e-07,0.6,1.805625061309104e-07,-4.298960807985789e-06
1.805848675517199e-07,0,1.805848675517199e-07,0.6,1.805848675517199e-07,-8.968372558814189e-06
1.806036038539164e-07,0,1.806036038539164e-07,0.6,1.806036038539164e-07,-8.412169963126992e-06
1.80625483708602e-07,0,1.80625483708602e-07,0.6,1.80625483708602e-07,-1.523264935058266e-06
1.806451068339309e-07,0,1.806451068339309e-07,0.6,1.806451068339309e-07,6.086634999963023e-06
1.806634712559994e-07,0,1.806634712559994e-07,0.6,1.806634712559994e-07,1.354071562727227e-05
1.806890461699482e-07,0,1.806890461699482e-07,0.6,1.806890461699482e-07,2.235934346831976e-05
1.807070183456254e-07,0,1.807070183456254e-07,0.6,1.807070183456254e-07,2.060085965310047e-05
1.807255209618603e-07,0,1.807255209618603e-07,0.6,1.807255209618603e-07,1.407338412244062e-05
1.807458248520275e-07,0,1.807458248520275e-07,0.6,1.807458248520275e-07,7.971546544106493e-06
1.807738646273709e-07,0,1.807738646273709e-07,0.6,1.807738646273709e-07,3.806810568232556e-06
1.808089444924767e-07,0,1.808089444924767e-07,0.6,1.808089444924767e-07,2.743824012751352e-06
1.808428478408904e-07,0,1.808428478408904e-07,0.6,1.808428478408904e-07,2.158252573230489e-06
1.808780748904228e-07,0,1.808780748904228e-07,0.6,1.808780748904228e-07,9.893721661717112e-07
1.809075316785205e-07,0,1.809075316785205e-07,0.6,1.809075316785205e-07,-4.615238783354421e-08
1.809338918682279e-07,0,1.809338918682279e-07,0.6,1.809338918682279e-07,4.991635247452392e-07
1.809712993583856e-07,0,1.809712993583856e-07,0.6,1.809712993583856e-07,4.515314074239779e-07
1.81e-07,0,1.81e-07,0.6,1.81e-07,4.17405985844902e-07
1.810000390625e-07,0.002343749999903396,1.810000390625e-07,0.6,1.810000390625e-07,4.42259942706315e-07
1.810001171875e-07,0.007031250000231312,1.810001171875e-07,0.6,1.810001171875e-07,5.357983443549203e-07
1.810002734375e-07,0.01640625000088715,1.810002734375e-07,0.6,1.810002734375e-07,7.721274878958646e-07
1.810004683221461e-07,0.02809932876347505,1.810004683221461e-07,0.6,1.810004683221461e-07,1.05714494653225e-06
1.810006891193699e-07,0.04134716219231631,1.810006891193699e-07,0.6,1.810006891193699e-07,1.381812078560785e-06
1.810011307138175e-07,0.06784282904999882,1.810011307138175e-07,0.6,1.810011307138175e-07,1.986341742356869e-06
1.810020139027128e-07,0.1208341627653639,1.810020139027128e-07,0.6,1.810020139027128e-07,3.091804330433051e-06
1.810036231023774e-07,0.2173861426432428,1.810036231023774e-07,0.6,1.810036231023774e-07,4.644382410419212e-06
1.810068203699141e-07,0.4092221948458238,1.810068203699141e-07,0.6,1.810068203699141e-07,6.346747847710906e-06
1.8101e-07,0.6,1.8101e-07,0.6,1.8101e-07,5.912498686623524e-06
1.81010268993596e-07,0.6,1.81010268993596e-07,0.6,1.81010268993596e-07,5.511360592435807e-06
1.81010806980788e-07,0.6,1.81010806980788e-07,0.6,1.81010806980788e-07,4.630175302221685e-06
1.810115750247652e-07,0.6,1.810115750247652e-07,0.6,1.810115750247652e-07,3.417687523994123e-06
1.810117639954826e-07,0.6,1.810117639954826e-07,0.6,1.810117639954826e-07,3.14096112950792e-06
1.810121419369175e-07,0.6,1.810121419369175e-07,0.6,1.810121419369175e-07,2.580908172995183e-06
1.810128978197874e-07,0.6,1.810128978197874e-07,0.6,1.810128978197874e-07,1.530235613308789e-06
1.810138420459688e-07,0.6,1.810138420459688e-07,0.6,1.810138420459688e-07,2.883641574957281e-07
1.810143141590596e-07,0.6,1.810143141590596e-07,0.6,1.810143141590596e-07,-3.637371176938037e-07
1.810152583852411e-07,0.6,1.810152583852411e-07,0.6,1.810152583852411e-07,-1.541129532292783e-06
1.810171468376041e-07,0.6,1.810171468376041e-07,0.6,1.810171468376041e-07,-3.452027726989278e-06
1.810203815608211e-07,0.6,1.810203815608211e-07,0.6,1.810203815608211e-07,-5.475684528708232e-06
1.810219989224296e-07,0.6,1.810219989224296e-07,0.6,1.810219989224296e-07,-5.988147821818649e-06
1.810252336456467e-07,0.6,1.810252336456467e-07,0.6,1.810252336456467e-07,-6.389047406368809e-06
1.810317030920808e-07,0.6,1.810317030920808e-07,0.6,1.810317030920808e-07,-5.72600281523988e-06
1.810440460190866e-07,0.6,1.810440460190866e-07,0.6,1.810440460190866e-07,-3.091188116016657e-06
1.810627146015511e-07,0.6,1.810627146015511e-07,0.6,1.810627146015511e-07,-3.654115239766156e-07
1.810893988353171e-07,0.6,1.810893988353171e-07,0.6,1.810893988353171e-07,8.402210646871578e-07
1.81128873054388e-07,0.6,1.81128873054388e-07,0.6,1.81128873054388e-07,1.322279226582557e-06
1.811647552395698e-07,0.6,1.811647552395698e-07,0.6,1.811647552395698e-07,1.526097131879273e-06
1.811968666613799e-07,0.6,1.811968666613799e-07,0.6,1.811968666613799e-07,2.285563416497569e-06
1.812215266529415e-07,0.6,1.812215266529415e-07,0.6,1.812215266529415e-07,2.594388630570036e-06
1.812448199104694e-07,0.6,1.812448199104694e-07,0.6,1.812448199104694e-07,2.103926820917912e-06
