/D (x=0.8) X,/D (x=0.8) Y,/CLK (x=0.8) X,/CLK (x=0.8) Y,/Q (x=0.8) X,/Q (x=0.8) Y
0,0,0,0,0,4.152754030239925e-08
3.90625e-14,0.003125,3.90625e-14,0,3.90625e-14,3.513405812201187e-06
1.171875e-13,0.009375000000000001,1.171875e-13,0,1.171875e-13,1.695731283016764e-05
1.5625e-13,0.0125,1.5625e-13,0,1.5625e-13,2.468844457300876e-05
2.34375e-13,0.01875000000000001,2.34375e-13,0,2.34375e-13,4.154723347628864e-05
3.906250000000001e-13,0.03125000000000001,3.906250000000001e-13,0,3.906250000000001e-13,7.361596565649635e-05
6.473685606575821e-13,0.05178948485260658,6.473685606575821e-13,0,6.473685606575821e-13,0.0001353004975974802
1.020691355832852e-12,0.08165530846662812,1.020691355832852e-12,0,1.020691355832852e-12,0.0001933063403857356
1.76733694618339e-12,0.1413869556946712,1.76733694618339e-12,0,1.76733694618339e-12,0.0002624866039128251
2.14065974135866e-12,0.1712527793086928,2.14065974135866e-12,0,2.14065974135866e-12,0.000278159790182019
2.887305331709198e-12,0.2309844265367358,2.887305331709198e-12,0,2.887305331709198e-12,0.0002827849091320393
3.260628126884467e-12,0.2608502501507574,3.260628126884467e-12,0,3.260628126884467e-12,0.000275239423953217
4.007273717235007e-12,0.3205818973788006,4.007273717235007e-12,0,4.007273717235007e-12,0.0002466886474230844
4.380596512410276e-12,0.3504477209928221,4.380596512410276e-12,0,4.380596512410276e-12,0.0002283923180995174
5.127242102760815e-12,0.4101793682208652,5.127242102760815e-12,0,5.127242102760815e-12,0.0001871929534769563
6.620533283461893e-12,0.5296426626769515,6.620533283461893e-12,0,6.620533283461893e-12,0.0001098992539244346
8.310266641730946e-12,0.6648213313384758,8.310266641730946e-12,0,8.310266641730946e-12,4.46934409538108e-05
9.999999999999999e-12,0.8,9.999999999999999e-12,0,9.999999999999999e-12,-1.161439295543618e-05
1.029131743002064e-11,0.8,1.029131743002064e-11,0,1.029131743002064e-11,-7.818217835416072e-05
1.087382157715064e-11,0.8,1.087382157715064e-11,0,1.087382157715064e-11,-0.0001953649487993877
1.100583264372988e-11,0.8,1.100583264372988e-11,0,1.100583264372988e-11,-0.0002159199145625606
1.126985477688836e-11,0.8,1.126985477688836e-11,0,1.126985477688836e-11,-0.0002483137704872095
1.179789904320532e-11,0.8,1.179789904320532e-11,0,1.179789904320532e-11,-0.0002934978734705289
1.196984010071779e-11,0.8,1.196984010071779e-11,0,1.196984010071779e-11,-0.0003025332335239279
1.231372221574272e-11,0.8,1.231372221574272e-11,0,1.231372221574272e-11,-0.0003152140567325511
1.300148644579258e-11,0.8,1.300148644579258e-11,0,1.300148644579258e-11,-0.0003203895260026602
1.437701490589231e-11,0.8,1.437701490589231e-11,0,1.437701490589231e-11,-0.0002787259166259892
1.506477913594217e-11,0.8,1.506477913594217e-11,0,1.506477913594217e-11,-0.0002493872509451213
1.64403075960419e-11,0.8,1.64403075960419e-11,0,1.64403075960419e-11,-0.0001897362364100996
1.919136451624135e-11,0.8,1.919136451624135e-11,0,1.919136451624135e-11,-8.991381984785236e-05
2.469347835664025e-11,0.8,2.469347835664025e-11,0,2.469347835664025e-11,1.099601599222129e-05
3.201273394894215e-11,0.8,3.201273394894215e-11,0,3.201273394894215e-11,2.808203010592538e-05
4.132584420287342e-11,0.8,4.132584420287342e-11,0,4.132584420287342e-11,2.807283432661653e-05
5.254862950471648e-11,0.8,5.254862950471648e-11,0,5.254862950471648e-11,2.540014556007263e-06
6.777599623430169e-11,0.8,6.777599623430169e-11,0,6.777599623430169e-11,5.465397444538133e-06
8.792438746668987e-11,0.8,8.792438746668987e-11,0,8.792438746668987e-11,-1.387901576707027e-06
1.147815361519285e-10,0.8,1.147815361519285e-10,0,1.147815361519285e-10,4.729150233744066e-07
1.500249541148308e-10,0.8,1.500249541148308e-10,0,1.500249541148308e-10,-1.019091639357301e-06
1.963460786624718e-10,0.8,1.963460786624718e-10,0,1.963460786624718e-10,4.904350353756126e-07
2.57333093109887e-10,0.8,2.57333093109887e-10,0,2.57333093109887e-10,-7.120369083131737e-07
3.378639173657292e-10,0.8,3.378639173657292e-10,0,3.378639173657292e-10,3.970127687041679e-07
4.451976643040069e-10,0.8,4.451976643040069e-10,0,4.451976643040069e-10,-6.16582059257422e-07
5.886841072760049e-10,0.8,5.886841072760049e-10,0,5.886841072760049e-10,3.304668236142018e-07
7.81905410744224e-10,0.8,7.81905410744224e-10,0,7.81905410744224e-10,-5.663344515052862e-07
1.041899263150313e-09,0.8,1.041899263150313e-09,0,1.041899263150313e-09,2.9421328004712e-07
1.394215201950293e-09,0.8,1.394215201950293e-09,0,1.394215201950293e-09,-5.397692425857882e-07
1.871184400429291e-09,0.8,1.871184400429291e-09,0,1.871184400429291e-09,2.749172778024403e-07
2.521401972014111e-09,0.8,2.521401972014111e-09,0,2.521401972014111e-09,-5.25643427995628e-07
3.406358227635731e-09,0.8,3.406358227635731e-09,0,3.406358227635731e-09,2.646765818232097e-07
4.61848564972831e-09,0.8,4.61848564972831e-09,0,4.61848564972831e-09,-5.181508909058366e-07
6.275081217516548e-09,0.8,6.275081217516548e-09,0,6.275081217516548e-09,2.592383099243154e-07
8.552369596181317e-09,0.8,8.552369596181317e-09,0,8.552369596181317e-09,-5.141965887138752e-07
1.167354549747843e-08,0.8,1.167354549747843e-08,0,1.167354549747843e-08,2.563550021596691e-07
1.567354549747843e-08,0.8,1.567354549747843e-08,0,1.567354549747843e-08,-5.120451431493592e-07
1.967354549747843e-08,0.8,1.967354549747843e-08,0,1.967354549747843e-08,2.544650891990085e-07
2.367354549747843e-08,0.8,2.367354549747843e-08,0,2.367354549747843e-08,-5.101611664058157e-07
2.767354549747843e-08,0.8,2.767354549747843e-08,0,2.767354549747843e-08,2.525895021833593e-07
3.167354549747843e-08,0.8,3.167354549747843e-08,0,3.167354549747843e-08,-5.082742836015799e-07
3.567354549747843e-08,0.8,3.567354549747843e-08,0,3.567354549747843e-08,2.507098249183307e-07
3.967354549747844e-08,0.8,3.967354549747844e-08,0,3.967354549747844e-08,-5.063984471879831e-07
4.367354549747844e-08,0.8,4.367354549747844e-08,0,4.367354549747844e-08,2.488356193258097e-07
4.767354549747844e-08,0.8,4.767354549747844e-08,0,4.767354549747844e-08,-5.045275740329524e-07
5.167354549747844e-08,0.8,5.167354549747844e-08,0,5.167354549747844e-08,2.469667378162754e-07
5.567354549747845e-08,0.8,5.567354549747845e-08,0,5.567354549747845e-08,-5.02661778022543e-07
5.967354549747845e-08,0.8,5.967354549747845e-08,0,5.967354549747845e-08,2.451031309668429e-07
6.367354549747845e-08,0.8,6.367354549747845e-08,0,6.367354549747845e-08,-5.008011196533768e-07
6.767354549747844e-08,0.8,6.767354549747844e-08,0,6.767354549747844e-08,2.432447803787234e-07
7.167354549747844e-08,0.8,7.167354549747844e-08,0,7.167354549747844e-08,-4.989456358908494e-07
7.567354549747843e-08,0.8,7.567354549747843e-08,0,7.567354549747843e-08,2.413916832042865e-07
7.967354549747843e-08,0.8,7.967354549747843e-08,0,7.967354549747843e-08,-4.970953536415113e-07
8.367354549747843e-08,0.8,8.367354549747843e-08,0,8.367354549747843e-08,2.395438431197468e-07
8.767354549747842e-08,0.8,8.767354549747842e-08,0,8.767354549747842e-08,-4.952502943615034e-07
9.167354549747842e-08,0.8,9.167354549747842e-08,0,9.167354549747842e-08,2.37701266916669e-07
9.567354549747842e-08,0.8,9.567354549747842e-08,0,9.567354549747842e-08,-4.934104758004295e-07
9.967354549747841e-08,0.8,9.967354549747841e-08,0,9.967354549747841e-08,2.358639642150319e-07
1.036735454974784e-07,0.8,1.036735454974784e-07,0,1.036735454974784e-07,-4.915759150823069e-07
1.076735454974784e-07,0.8,1.076735454974784e-07,0,1.076735454974784e-07,2.340319443474737e-07
1.116735454974784e-07,0.8,1.116735454974784e-07,0,1.116735454974784e-07,-4.89746626787501e-07
1.156735454974784e-07,0.8,1.156735454974784e-07,0,1.156735454974784e-07,2.322052183462364e-07
1.196735454974784e-07,0.8,1.196735454974784e-07,0,1.196735454974784e-07,-4.879226259675719e-07
1.236735454974784e-07,0.8,1.236735454974784e-07,0,1.236735454974784e-07,2.303837967334851e-07
1.276735454974784e-07,0.8,1.276735454974784e-07,0,1.276735454974784e-07,-4.861039241848924e-07
1.316735454974784e-07,0.8,1.316735454974784e-07,0,1.316735454974784e-07,2.285676896135073e-07
1.356735454974784e-07,0.8,1.356735454974784e-07,0,1.356735454974784e-07,-4.842905336982731e-07
1.396735454974784e-07,0.8,1.396735454974784e-07,0,1.396735454974784e-07,2.26756907054312e-07
1.436735454974784e-07,0.8,1.436735454974784e-07,0,1.436735454974784e-07,-4.824824668454009e-07
1.476735454974785e-07,0.8,1.476735454974785e-07,0,1.476735454974785e-07,2.249514599714245e-07
1.516735454974785e-07,0.8,1.516735454974785e-07,0,1.516735454974785e-07,-4.806797349141572e-07
1.556735454974785e-07,0.8,1.556735454974785e-07,0,1.556735454974785e-07,2.23151358349947e-07
1.596735454974785e-07,0.8,1.596735454974785e-07,0,1.596735454974785e-07,-4.788823487752719e-07
1.636735454974785e-07,0.8,1.636735454974785e-07,0,1.636735454974785e-07,2.21356612060424e-07
1.676735454974785e-07,0.8,1.676735454974785e-07,0,1.676735454974785e-07,-4.770903188593957e-07
1.716735454974785e-07,0.8,1.716735454974785e-07,0,1.716735454974785e-07,2.195672306948743e-07
1.756735454974785e-07,0.8,1.756735454974785e-07,0,1.756735454974785e-07,-4.753036551768708e-07
1.778367727487393e-07,0.8,1.778367727487393e-07,0,1.778367727487393e-07,2.170274698918577e-07
1.8e-07,0.8,1.8e-07,0,1.8e-07,-4.720141046706349e-07
1.800000390625e-07,0.8,1.800000390625e-07,0.00312500000021861,1.800000390625e-07,-5.793622466302163e-07
1.800001171875e-07,0.8,1.800001171875e-07,0.009375000000655833,1.800001171875e-07,-4.217554625860605e-07
1.800002734375e-07,0.8,1.800002734375e-07,0.02187500000153027,1.800002734375e-07,2.314676754681834e-07
1.800004775130292e-07,0.8,1.800004775130292e-07,0.03820104233849648,1.800004775130292e-07,1.001838852895025e-06
1.800006966021254e-07,0.8,1.800006966021254e-07,0.05572817003183539,1.800006966021254e-07,1.726717141208404e-06
1.800011347803177e-07,0.8,1.800011347803177e-07,0.0907824254185132,1.800011347803177e-07,2.815831527766255e-06
1.800020111367024e-07,0.8,1.800020111367024e-07,0.1608909361918688,1.800020111367024e-07,3.486512745922841e-06
1.800035636777028e-07,0.8,1.800035636777028e-07,0.2850942162248028,1.800035636777028e-07,4.156816417845105e-06
1.800063598694242e-07,0.8,1.800063598694242e-07,0.5087895539399041,1.800063598694242e-07,1.986554756577862e-06
1.800081799347121e-07,0.8,1.800081799347121e-07,0.6543947769704057,1.800081799347121e-07,-1.260377399368266e-06
1.8001e-07,0.8,1.8001e-07,0.8,1.8001e-07,-7.716933796578905e-06
1.800100272555911e-07,0.8,1.800100272555911e-07,0.8,1.800100272555911e-07,-7.905254847399405e-06
1.800100817667734e-07,0.8,1.800100817667734e-07,0.8,1.800100817667734e-07,-8.300654205514248e-06
1.800101907891379e-07,0.8,1.800101907891379e-07,0.8,1.800101907891379e-07,-9.172649609294684e-06
1.800103329297836e-07,0.8,1.800103329297836e-07,0.8,1.800103329297836e-07,-1.023300955059947e-05
1.800103771126289e-07,0.8,1.800103771126289e-07,0.8,1.800103771126289e-07,-1.052716608228393e-05
1.800104654783194e-07,0.8,1.800104654783194e-07,0.8,1.800104654783194e-07,-1.109090600014045e-05
1.800106422097004e-07,0.8,1.800106422097004e-07,0.8,1.800106422097004e-07,-1.207281009762487e-05
1.800109956724623e-07,0.8,1.800109956724623e-07,0.8,1.800109956724623e-07,-1.355312894440384e-05
1.800117025979862e-07,0.8,1.800117025979862e-07,0.8,1.800117025979862e-07,-1.503850864750736e-05
1.80013116449034e-07,0.8,1.80013116449034e-07,0.8,1.80013116449034e-07,-1.407312916623027e-05
1.800159441511297e-07,0.8,1.800159441511297e-07,0.8,1.800159441511297e-07,-9.901763642521011e-06
1.800198720382016e-07,0.8,1.800198720382016e-07,0.8,1.800198720382016e-07,-3.52910847183068e-06
1.800249341237571e-07,0.8,1.800249341237571e-07,0.8,1.800249341237571e-07,1.050076780101143e-06
1.800296223341888e-07,0.8,1.800296223341888e-07,0.8,1.800296223341888e-07,4.374235213344845e-06
1.800350538299171e-07,0.8,1.800350538299171e-07,0.8,1.800350538299171e-07,1.2700517829846e-05
1.80039451367821e-07,0.8,1.80039451367821e-07,0.8,1.80039451367821e-07,1.76569476421487e-05
1.800435828300068e-07,0.8,1.800435828300068e-07,0.8,1.800435828300068e-07,2.275484026299188e-05
1.800485730273016e-07,0.8,1.800485730273016e-07,0.8,1.800485730273016e-07,1.42647157824329e-05
1.800527745847713e-07,0.8,1.800527745847713e-07,0.8,1.800527745847713e-07,2.703765524781004e-06
1.800566052967597e-07,0.8,1.800566052967597e-07,0.8,1.800566052967597e-07,-6.430523370948251e-06
1.80060231694514e-07,0.8,1.80060231694514e-07,0.8,1.80060231694514e-07,-1.827346555527897e-05
1.800633108124363e-07,0.8,1.800633108124363e-07,0.8,1.800633108124363e-07,-2.656109581624629e-05
1.800658527076999e-07,0.8,1.800658527076999e-07,0.8,1.800658527076999e-07,-2.902622082830084e-05
1.800680728195957e-07,0.8,1.800680728195957e-07,0.8,1.800680728195957e-07,-2.622590702603006e-05
1.800704330571363e-07,0.8,1.800704330571363e-07,0.8,1.800704330571363e-07,-2.122183198546052e-05
1.800723560940867e-07,0.8,1.800723560940867e-07,0.8,1.800723560940867e-07,-3.227884743076448e-05
1.800745097173908e-07,0.8,1.800745097173908e-07,0.8,1.800745097173908e-07,-6.104657525632287e-05
1.800770225672767e-07,0.8,1.800770225672767e-07,0.8,1.800770225672767e-07,-9.546302669433242e-05
1.80079385596084e-07,0.8,1.80079385596084e-07,0.8,1.80079385596084e-07,-0.0001000510041708144
1.800818453039247e-07,0.8,1.800818453039247e-07,0.8,1.800818453039247e-07,-7.994280430426722e-05
1.800844349375336e-07,0.8,1.800844349375336e-07,0.8,1.800844349375336e-07,-5.025612479408807e-05
1.800878958671375e-07,0.8,1.800878958671375e-07,0.8,1.800878958671375e-07,-1.852833093323144e-05
1.800931953438559e-07,0.8,1.800931953438559e-07,0.8,1.800931953438559e-07,4.656682769202019e-06
1.801008940259447e-07,0.8,1.801008940259447e-07,0.8,1.801008940259447e-07,6.461172390063442e-06
1.801145192624768e-07,0.8,1.801145192624768e-07,0.8,1.801145192624768e-07,-3.158792260333165e-06
1.801331029817839e-07,0.8,1.801331029817839e-07,0.8,1.801331029817839e-07,2.460968717450785e-05
1.801441148833117e-07,0.8,1.801441148833117e-07,0.8,1.801441148833117e-07,7.685841808445691e-05
1.801535290960039e-07,0.8,1.801535290960039e-07,0.8,1.801535290960039e-07,0.0001732575983986797
1.801633271060681e-07,0.8,1.801633271060681e-07,0.8,1.801633271060681e-07,0.0002726724795224929
1.801723664513789e-07,0.8,1.801723664513789e-07,0.8,1.801723664513789e-07,0.0003738078676830617
1.801793820255982e-07,0.8,1.801793820255982e-07,0.8,1.801793820255982e-07,0.0004910233693373607
1.801851061225176e-07,0.8,1.801851061225176e-07,0.8,1.801851061225176e-07,0.0006890527930377878
1.801913466633644e-07,0.8,1.801913466633644e-07,0.8,1.801913466633644e-07,0.001173712325110959
1.801967820070615e-07,0.8,1.801967820070615e-07,0.8,1.801967820070615e-07,0.001641721372361505
1.802044023708232e-07,0.8,1.802044023708232e-07,0.8,1.802044023708232e-07,0.00122407648725475
1.802104440106291e-07,0.8,1.802104440106291e-07,0.8,1.802104440106291e-07,-0.001131483679829228
1.802153979314275e-07,0.8,1.802153979314275e-07,0.8,1.802153979314275e-07,-0.005510053383032859
1.80220101857187e-07,0.8,1.80220101857187e-07,0.8,1.80220101857187e-07,-0.01129279455270252
1.802267568602895e-07,0.8,1.802267568602895e-07,0.8,1.802267568602895e-07,-0.02479551110292981
1.80232047692521e-07,0.8,1.80232047692521e-07,0.8,1.80232047692521e-07,-0.04514448026873485
1.802383200619233e-07,0.8,1.802383200619233e-07,0.8,1.802383200619233e-07,-0.07960410067896911
1.802443916367969e-07,0.8,1.802443916367969e-07,0.8,1.802443916367969e-07,-0.09517054528580607
1.802490048792699e-07,0.8,1.802490048792699e-07,0.8,1.802490048792699e-07,-0.0569439121078247
1.80252590250442e-07,0.8,1.80252590250442e-07,0.8,1.80252590250442e-07,0.02548005339931649
1.802559756311717e-07,0.8,1.802559756311717e-07,0.8,1.802559756311717e-07,0.1477470555701887
1.802587229886118e-07,0.8,1.802587229886118e-07,0.8,1.802587229886118e-07,0.2711921313187571
1.802623091471906e-07,0.8,1.802623091471906e-07,0.8,1.802623091471906e-07,0.4474583242539447
1.802652960463637e-07,0.8,1.802652960463637e-07,0.8,1.802652960463637e-07,0.5919894922284586
1.802682276350005e-07,0.8,1.802682276350005e-07,0.8,1.802682276350005e-07,0.705746773157749
1.802706011745723e-07,0.8,1.802706011745723e-07,0.8,1.802706011745723e-07,0.7556249214651014
1.802727637598721e-07,0.8,1.802727637598721e-07,0.8,1.802727637598721e-07,0.7753442548524389
1.802755491342198e-07,0.8,1.802755491342198e-07,0.8,1.802755491342198e-07,0.7873600297491612
1.802776577915331e-07,0.8,1.802776577915331e-07,0.8,1.802776577915331e-07,0.7919273329607374
1.802806960277142e-07,0.8,1.802806960277142e-07,0.8,1.802806960277142e-07,0.7954290164955409
1.802848040674819e-07,0.8,1.802848040674819e-07,0.8,1.802848040674819e-07,0.7976675861061386
1.802903969832902e-07,0.8,1.802903969832902e-07,0.8,1.802903969832902e-07,0.7989422912102084
1.802984108990063e-07,0.8,1.802984108990063e-07,0.8,1.802984108990063e-07,0.7996241302532344
1.803088777884961e-07,0.8,1.803088777884961e-07,0.8,1.803088777884961e-07,0.7999006253275391
1.803219369410645e-07,0.8,1.803219369410645e-07,0.8,1.803219369410645e-07,0.7999806214076318
1.803397113852682e-07,0.8,1.803397113852682e-07,0.8,1.803397113852682e-07,0.7999977557238461
1.803670553968116e-07,0.8,1.803670553968116e-07,0.8,1.803670553968116e-07,0.7999997788801209
1.804166163368029e-07,0.8,1.804166163368029e-07,0.8,1.804166163368029e-07,0.8000001871377856
1.804633081684015e-07,0.8,1.804633081684015e-07,0.8,1.804633081684015e-07,0.7999996720896506
1.8051e-07,0.8,1.8051e-07,0.8,1.8051e-07,0.8000002582651319
1.805100390625e-07,0.8,1.805100390625e-07,0.7968749999979865,1.805100390625e-07,0.8000002252587379
1.805101171875e-07,0.8,1.805101171875e-07,0.7906249999975492,1.805101171875e-07,0.799999996442433
1.8051015625e-07,0.8,1.8051015625e-07,0.7874999999973307,1.8051015625e-07,0.7999998453882688
1.80510234375e-07,0.8,1.80510234375e-07,0.7812499999968934,1.80510234375e-07,0.799999520662226
1.805103715197104e-07,0.8,1.805103715197104e-07,0.7702784231639757,1.805103715197104e-07,0.7999989269762935
1.805106146414702e-07,0.8,1.805106146414702e-07,0.7508286823818527,1.805106146414702e-07,0.7999980394543458
1.805111008849898e-07,0.8,1.805111008849898e-07,0.7119292008176069,1.805111008849898e-07,0.7999967125720483
1.805120733720289e-07,0.8,1.805120733720289e-07,0.6341302376891154,1.805120733720289e-07,0.799995374884984
1.805140183461071e-07,0.8,1.805140183461071e-07,0.4785323114321322,1.805140183461071e-07,0.7999954469484588
1.805170091730536e-07,0.8,1.805170091730536e-07,0.2392661557136562,1.805170091730536e-07,0.7999996306360252
1.805185045865268e-07,0.8,1.805185045865268e-07,0.1196330778554771,1.805185045865268e-07,0.800004330933574
1.8052e-07,0.8,1.8052e-07,0,1.8052e-07,0.8000136394410011
1.805200939014944e-07,0.8,1.805200939014944e-07,0,1.805200939014944e-07,0.8000145742161806
1.805202817044832e-07,0.8,1.805202817044832e-07,0,1.805202817044832e-07,0.8000163832054463
1.805203756059775e-07,0.8,1.805203756059775e-07,0,1.805203756059775e-07,0.8000173024949949
1.805205634089663e-07,0.8,1.805205634089663e-07,0,1.805205634089663e-07,0.8000190621688484
1.805208156772169e-07,0.8,1.805208156772169e-07,0,1.805208156772169e-07,0.800020921539589
1.805212491814935e-07,0.8,1.805212491814935e-07,0,1.805212491814935e-07,0.8000231577596769
1.805221161900466e-07,0.8,1.805221161900466e-07,0,1.805221161900466e-07,0.8000248967125996
1.805238502071529e-07,0.8,1.805238502071529e-07,0,1.805238502071529e-07,0.8000227353417632
1.805267460421177e-07,0.8,1.805267460421177e-07,0,1.805267460421177e-07,0.8000152958152266
1.805301040662831e-07,0.8,1.805301040662831e-07,0,1.805301040662831e-07,0.8000062478424923
1.805329821771254e-07,0.8,1.805329821771254e-07,0,1.805329821771254e-07,0.7999964684295737
1.805364319920357e-07,0.8,1.805364319920357e-07,0,1.805364319920357e-07,0.7999831065208197
1.805395522872017e-07,0.8,1.805395522872017e-07,0,1.805395522872017e-07,0.7999636184635398
1.805429282619764e-07,0.8,1.805429282619764e-07,0,1.805429282619764e-07,0.7999399670732142
1.805466733438694e-07,0.8,1.805466733438694e-07,0,1.805466733438694e-07,0.7999429634768843
1.805503252378774e-07,0.8,1.805503252378774e-07,0,1.805503252378774e-07,0.7999621956499415
