/CLK (x=0.6) X,/CLK (x=0.6) Y,/D (x=0.6) X,/D (x=0.6) Y,/Q (x=0.6) X,/Q (x=0.6) Y
0,0,0,0,0,1.329252266519523e-07
3.90625e-14,0,3.90625e-14,0.00234375,3.90625e-14,1.806764964802589e-07
1.171875e-13,0,1.171875e-13,0.00703125,1.171875e-13,3.778835274745837e-07
1.5625e-13,0,1.5625e-13,0.009375000000000001,1.5625e-13,4.854862561247556e-07
2.34375e-13,0,2.34375e-13,0.0140625,2.34375e-13,7.228640231381905e-07
3.906250000000001e-13,0,3.906250000000001e-13,0.02343750000000001,3.906250000000001e-13,1.187568732045269e-06
6.889171089613797e-13,0,6.889171089613797e-13,0.04133502653768278,6.889171089613797e-13,2.006730605908496e-06
1.285501326884139e-12,0,1.285501326884139e-12,0.07713007961304834,1.285501326884139e-12,3.587128735205534e-06
2.478669762729658e-12,0,2.478669762729658e-12,0.1487201857637795,2.478669762729658e-12,5.52128627169655e-06
4.613844735375429e-12,0,4.613844735375429e-12,0.2768306841225258,4.613844735375429e-12,6.147800550616961e-06
7.306922367687714e-12,0,7.306922367687714e-12,0.4384153420612628,7.306922367687714e-12,4.620904061954682e-06
9.999999999999999e-12,0,9.999999999999999e-12,0.6,9.999999999999999e-12,2.119109433501919e-06
1.012152033038186e-11,0,1.012152033038186e-11,0.6,1.012152033038186e-11,1.750585418992995e-06
1.036456099114557e-11,0,1.036456099114557e-11,0.6,1.036456099114557e-11,8.873093961516383e-07
1.048608132152743e-11,0,1.048608132152743e-11,0.6,1.048608132152743e-11,4.427783402503111e-07
1.072912198229114e-11,0,1.072912198229114e-11,0.6,1.072912198229114e-11,-3.436348424168356e-07
1.121520330381857e-11,0,1.121520330381857e-11,0.6,1.121520330381857e-11,-1.761617954128006e-06
1.193988037021026e-11,0,1.193988037021026e-11,0.6,1.193988037021026e-11,-3.453902377112405e-06
1.338923450299365e-11,0,1.338923450299365e-11,0.6,1.338923450299365e-11,-5.691220673786863e-06
1.406613154416643e-11,0,1.406613154416643e-11,0.6,1.406613154416643e-11,-6.288382491494462e-06
1.541992562651199e-11,0,1.541992562651199e-11,0.6,1.541992562651199e-11,-6.953294986839714e-06
1.812751379120311e-11,0,1.812751379120311e-11,0.6,1.812751379120311e-11,-6.76854187097332e-06
2.301657479952848e-11,0,2.301657479952848e-11,0.6,2.301657479952848e-11,-3.996259858199369e-06
2.961035991127624e-11,0,2.961035991127624e-11,0.6,2.961035991127624e-11,-3.083478938223538e-08
3.765880903954523e-11,0,3.765880903954523e-11,0.6,3.765880903954523e-11,2.203224031039054e-06
4.488383273316914e-11,0,4.488383273316914e-11,0.6,4.488383273316914e-11,2.334992416650477e-06
5.355854937877823e-11,0,5.355854937877823e-11,0.6,5.355854937877823e-11,1.590218149656103e-06
6.474423302340524e-11,0,6.474423302340524e-11,0.6,6.474423302340524e-11,5.900044402090627e-07
7.37716094259059e-11,0,7.37716094259059e-11,0.6,7.37716094259059e-11,9.103405098747347e-08
8.240512940700665e-11,0,8.240512940700665e-11,0.6,8.240512940700665e-11,-1.114269926399929e-07
9.219444168240097e-11,0,9.219444168240097e-11,0.6,9.219444168240097e-11,-1.742007654725568e-07
1.079880277907495e-10,0,1.079880277907495e-10,0.6,1.079880277907495e-10,-1.111820463775476e-07
1.349039589750075e-10,0,1.349039589750075e-10,0.6,1.349039589750075e-10,5.577892980564534e-08
1.842111675069708e-10,0,1.842111675069708e-10,0.6,1.842111675069708e-10,1.764359103443012e-07
2.516188850316281e-10,0,2.516188850316281e-10,0.6,2.516188850316281e-10,1.359541818431119e-07
3.278667662846843e-10,0,3.278667662846843e-10,0.6,3.278667662846843e-10,1.328534006292568e-07
4.243705626779569e-10,0,4.243705626779569e-10,0.6,4.243705626779569e-10,1.356021436523491e-07
5.15779849671078e-10,0,5.15779849671078e-10,0.6,5.15779849671078e-10,1.562852158493314e-07
5.701427787488995e-10,0,5.701427787488995e-10,0.6,5.701427787488995e-10,1.98094938257597e-07
6.276536791061866e-10,0,6.276536791061866e-10,0.6,6.276536791061866e-10,1.499026852238642e-07
6.717268335388399e-10,0,6.717268335388399e-10,0.6,6.717268335388399e-10,-6.533858505624766e-08
7.2210171794773e-10,0,7.2210171794773e-10,0.6,7.2210171794773e-10,-9.209645796740466e-08
7.636533344249463e-10,0,7.636533344249463e-10,0.6,7.636533344249463e-10,1.098571680067091e-07
7.973926071130512e-10,0,7.973926071130512e-10,0.6,7.973926071130512e-10,-1.776946470039045e-07
8.247123850864808e-10,0,8.247123850864808e-10,0.6,8.247123850864808e-10,1.614206813204643e-07
8.319584012695105e-10,0,8.319584012695105e-10,0.6,8.319584012695105e-10,4.429514304305688e-07
8.464504336355698e-10,0,8.464504336355698e-10,0.6,8.464504336355698e-10,9.690676643349556e-07
8.703823874337705e-10,0,8.703823874337705e-10,0.6,8.703823874337705e-10,1.072350552875987e-06
8.892469450083682e-10,0,8.892469450083682e-10,0.6,8.892469450083682e-10,5.303962790700043e-07
9.144401247234853e-10,0,9.144401247234853e-10,0.6,9.144401247234853e-10,-6.526692898097273e-08
9.464308298034774e-10,0,9.464308298034774e-10,0.6,9.464308298034774e-10,-2.528421070958533e-07
9.892533041924461e-10,0,9.892533041924461e-10,0.6,9.892533041924461e-10,-1.505285383841261e-08
1.048181804595237e-09,0,1.048181804595237e-09,0.6,1.048181804595237e-09,1.479153181723716e-07
1.132639634790827e-09,0,1.132639634790827e-09,0.6,1.132639634790827e-09,1.456053948029822e-07
1.240541629114986e-09,0,1.240541629114986e-09,0.6,1.240541629114986e-09,1.280627512940026e-07
1.382939635292979e-09,0,1.382939635292979e-09,0.6,1.382939635292979e-09,1.419256550369534e-07
1.569403490853804e-09,0,1.569403490853804e-09,0.6,1.569403490853804e-09,1.219260386454984e-07
1.818931070417912e-09,0,1.818931070417912e-09,0.6,1.818931070417912e-09,1.462213362837588e-07
2.151076352913081e-09,0,2.151076352913081e-09,0.6,2.151076352913081e-09,1.180673013791731e-07
2.595501670894917e-09,0,2.595501670894917e-09,0.6,2.595501670894917e-09,1.48941961748012e-07
3.189541056999678e-09,0,3.189541056999678e-09,0.6,3.189541056999678e-09,1.161029294564956e-07
3.986543336329684e-09,0,3.986543336329684e-09,0.6,3.986543336329684e-09,1.503226149511802e-07
5.056859348962407e-09,0,5.056859348962407e-09,0.6,5.056859348962407e-09,1.15120846246811e-07
6.497249870301117e-09,0,6.497249870301117e-09,0.6,6.497249870301117e-09,1.510232803943302e-07
8.437559148592797e-09,0,8.437559148592797e-09,0.6,8.437559148592797e-09,1.146170805832214e-07
1.105465506118247e-08,0,1.105465506118247e-08,0.6,1.105465506118247e-08,1.513873772905152e-07
1.458782092772888e-08,0,1.458782092772888e-08,0.6,1.458782092772888e-08,1.143526227416555e-07
1.858782092772888e-08,0,1.858782092772888e-08,0.6,1.858782092772888e-08,1.5159579785504e-07
2.258782092772888e-08,0,2.258782092772888e-08,0.6,2.258782092772888e-08,1.141599198796024e-07
2.658782092772888e-08,0,2.658782092772888e-08,0.6,2.658782092772888e-08,1.517858535989448e-07
3.058782092772888e-08,0,3.058782092772888e-08,0.6,3.058782092772888e-08,1.139725317407947e-07
3.458782092772888e-08,0,3.458782092772888e-08,0.6,3.458782092772888e-08,1.519705577274117e-07
3.858782092772889e-08,0,3.858782092772889e-08,0.6,3.858782092772889e-08,1.13790526617736e-07
4.258782092772889e-08,0,4.258782092772889e-08,0.6,4.258782092772889e-08,1.521498493964565e-07
4.658782092772889e-08,0,4.658782092772889e-08,0.6,4.658782092772889e-08,1.13613961864831e-07
5.058782092772889e-08,0,5.058782092772889e-08,0.6,5.058782092772889e-08,1.523236745107439e-07
5.45878209277289e-08,0,5.45878209277289e-08,0.6,5.45878209277289e-08,1.134428882337111e-07
5.85878209277289e-08,0,5.85878209277289e-08,0.6,5.85878209277289e-08,1.524919855967499e-07
6.25878209277289e-08,0,6.25878209277289e-08,0.6,6.25878209277289e-08,1.132773499200516e-07
6.65878209277289e-08,0,6.65878209277289e-08,0.6,6.65878209277289e-08,1.526547416953716e-07
7.058782092772889e-08,0,7.058782092772889e-08,0.6,7.058782092772889e-08,1.131173846718662e-07
7.458782092772889e-08,0,7.458782092772889e-08,0.6,7.458782092772889e-08,1.52811908235536e-07
7.858782092772889e-08,0,7.858782092772889e-08,0.6,7.858782092772889e-08,1.12963023912609e-07
8.258782092772888e-08,0,8.258782092772888e-08,0.6,8.258782092772888e-08,1.529634569061931e-07
8.658782092772888e-08,0,8.658782092772888e-08,0.6,8.658782092772888e-08,1.128142928737606e-07
9.058782092772888e-08,0,9.058782092772888e-08,0.6,9.058782092772888e-08,1.531093655168243e-07
9.458782092772887e-08,0,9.458782092772887e-08,0.6,9.458782092772887e-08,1.126712107450355e-07
9.858782092772887e-08,0,9.858782092772887e-08,0.6,9.858782092772887e-08,1.532496178395254e-07
1.025878209277289e-07,0,1.025878209277289e-07,0.6,1.025878209277289e-07,1.125337908295981e-07
1.065878209277289e-07,0,1.065878209277289e-07,0.6,1.065878209277289e-07,1.533842034548025e-07
1.105878209277289e-07,0,1.105878209277289e-07,0.6,1.105878209277289e-07,1.124020407097366e-07
1.145878209277289e-07,0,1.145878209277289e-07,0.6,1.145878209277289e-07,1.535131175639708e-07
1.185878209277288e-07,0,1.185878209277288e-07,0.6,1.185878209277288e-07,1.122759624563453e-07
1.225878209277288e-07,0,1.225878209277288e-07,0.6,1.225878209277288e-07,1.536363607822461e-07
1.265878209277289e-07,0,1.265878209277289e-07,0.6,1.265878209277289e-07,1.121555527926374e-07
1.305878209277289e-07,0,1.305878209277289e-07,0.6,1.305878209277289e-07,1.53753939017137e-07
1.345878209277289e-07,0,1.345878209277289e-07,0.6,1.345878209277289e-07,1.120408032256062e-07
1.385878209277289e-07,0,1.385878209277289e-07,0.6,1.385878209277289e-07,1.538658633012267e-07
1.425878209277289e-07,0,1.425878209277289e-07,0.6,1.425878209277289e-07,1.119317002285263e-07
1.465878209277289e-07,0,1.465878209277289e-07,0.6,1.465878209277289e-07,1.539721496054302e-07
1.505878209277289e-07,0,1.505878209277289e-07,0.6,1.505878209277289e-07,1.118282254352521e-07
1.545878209277289e-07,0,1.545878209277289e-07,0.6,1.545878209277289e-07,1.540728186445034e-07
1.585878209277289e-07,0,1.585878209277289e-07,0.6,1.585878209277289e-07,1.117303558300548e-07
1.625878209277289e-07,0,1.625878209277289e-07,0.6,1.625878209277289e-07,1.54167895687366e-07
1.665878209277289e-07,0,1.665878209277289e-07,0.6,1.665878209277289e-07,1.116380639391865e-07
1.70587820927729e-07,0,1.70587820927729e-07,0.6,1.70587820927729e-07,1.54257410363796e-07
1.74587820927729e-07,0,1.74587820927729e-07,0.6,1.74587820927729e-07,1.11551318023601e-07
1.772939104638645e-07,0,1.772939104638645e-07,0.6,1.772939104638645e-07,1.543606613329439e-07
1.8e-07,0,1.8e-07,0.6,1.8e-07,1.114331737586597e-07
1.80000009765625e-07,0.0005859374992468961,1.80000009765625e-07,0.6,1.80000009765625e-07,2.22684838287822e-07
1.80000029296875e-07,0.001757812497740688,1.80000029296875e-07,0.6,1.80000029296875e-07,6.907550835641808e-07
1.800000683593749e-07,0.004101562494728273,1.800000683593749e-07,0.6,1.800000683593749e-07,2.424015953694054e-06
1.800000859376974e-07,0.00515626184315186,1.800000859376974e-07,0.6,1.800000859376974e-07,3.308957871682601e-06
1.800001210943423e-07,0.007265660539999033,1.800001210943423e-07,0.6,1.800001210943423e-07,5.01815916427771e-06
1.800001914076322e-07,0.01148445793369338,1.800001914076322e-07,0.6,1.800001914076322e-07,8.389912623712172e-06
1.80000332034212e-07,0.01992205272108208,1.80000332034212e-07,0.6,1.80000332034212e-07,1.495021460683992e-05
1.800006132873716e-07,0.03679724229585946,1.800006132873716e-07,0.6,1.800006132873716e-07,2.72964433359008e-05
1.800011757936908e-07,0.07054762144541424,1.800011757936908e-07,0.6,1.800011757936908e-07,5.517683042590326e-05
1.800023008063291e-07,0.1380483797445238,1.800023008063291e-07,0.6,1.800023008063291e-07,9.245752582298156e-05
1.800045508316057e-07,0.2730498963427429,1.800045508316057e-07,0.6,1.800045508316057e-07,0.0001285032572959452
1.800072754158029e-07,0.4365249481717117,1.800072754158029e-07,0.6,1.800072754158029e-07,0.0001297880955448806
1.8001e-07,0.6,1.8001e-07,0.6,1.8001e-07,0.000104237986529543
1.800101275298864e-07,0.6,1.800101275298864e-07,0.6,1.800101275298864e-07,9.821093824274478e-05
1.800103825896591e-07,0.6,1.800103825896591e-07,0.6,1.800103825896591e-07,8.530341107974051e-05
1.800108927092047e-07,0.6,1.800108927092047e-07,0.6,1.800108927092047e-07,6.111583563624785e-05
1.800110166756284e-07,0.6,1.800110166756284e-07,0.6,1.800110166756284e-07,5.571119010697716e-05
1.80011264608476e-07,0.6,1.80011264608476e-07,0.6,1.80011264608476e-07,4.510547558394163e-05
1.800117604741711e-07,0.6,1.800117604741711e-07,0.6,1.800117604741711e-07,2.561458001157632e-05
1.800125430141867e-07,0.6,1.800125430141867e-07,0.6,1.800125430141867e-07,-1.327988147610069e-06
1.800129342841945e-07,0.6,1.800129342841945e-07,0.6,1.800129342841945e-07,-1.281958384702961e-05
1.800137168242101e-07,0.6,1.800137168242101e-07,0.6,1.800137168242101e-07,-3.320005079351796e-05
1.800152819042413e-07,0.6,1.800152819042413e-07,0.6,1.800152819042413e-07,-6.358099305667149e-05
1.800182606067607e-07,0.6,1.800182606067607e-07,0.6,1.800182606067607e-07,-9.136024184813836e-05
1.800195847650206e-07,0.6,1.800195847650206e-07,0.6,1.800195847650206e-07,-9.416533578765927e-05
1.800222330815405e-07,0.6,1.800222330815405e-07,0.6,1.800222330815405e-07,-9.173109189658087e-05
1.800275297145802e-07,0.6,1.800275297145802e-07,0.6,1.800275297145802e-07,-7.003842041344215e-05
1.800355109135549e-07,0.6,1.800355109135549e-07,0.6,1.800355109135549e-07,-3.246731538987819e-05
1.800449017725855e-07,0.6,1.800449017725855e-07,0.6,1.800449017725855e-07,-9.679717580094268e-06
1.800569986162008e-07,0.6,1.800569986162008e-07,0.6,1.800569986162008e-07,-1.638801739440294e-06
1.80068450825743e-07,0.6,1.80068450825743e-07,0.6,1.80068450825743e-07,4.363811483662547e-06
1.800773512220065e-07,0.6,1.800773512220065e-07,0.6,1.800773512220065e-07,8.99744051586746e-06
1.8008679034239e-07,0.6,1.8008679034239e-07,0.6,1.8008679034239e-07,8.950726128699125e-06
1.800993475796919e-07,0.6,1.800993475796919e-07,0.6,1.800993475796919e-07,4.22253278058813e-06
1.801244620542956e-07,0.6,1.801244620542956e-07,0.6,1.801244620542956e-07,-4.157886044756377e-06
1.80159490085781e-07,0.6,1.80159490085781e-07,0.6,1.80159490085781e-07,-9.986799628295724e-06
1.802076465514962e-07,0.6,1.802076465514962e-07,0.6,1.802076465514962e-07,-1.125004035333359e-05
1.802683796785231e-07,0.6,1.802683796785231e-07,0.6,1.802683796785231e-07,7.915490973171069e-06
1.803067787063181e-07,0.6,1.803067787063181e-07,0.6,1.803067787063181e-07,5.449106449021567e-05
1.803336842433361e-07,0.6,1.803336842433361e-07,0.6,1.803336842433361e-07,0.0001517300727052511
1.803640869585567e-07,0.6,1.803640869585567e-07,0.6,1.803640869585567e-07,0.000435274497319714
1.803876812875232e-07,0.6,1.803876812875232e-07,0.6,1.803876812875232e-07,0.0009783881939317966
1.804129949101275e-07,0.6,1.804129949101275e-07,0.6,1.804129949101275e-07,0.001564727202135058
1.804298093142783e-07,0.6,1.804298093142783e-07,0.6,1.804298093142783e-07,0.001575309377208722
1.804492938767422e-07,0.6,1.804492938767422e-07,0.6,1.804492938767422e-07,0.0008740267978258817
1.804670725344213e-07,0.6,1.804670725344213e-07,0.6,1.804670725344213e-07,-0.001128034754742043
1.804841418138047e-07,0.6,1.804841418138047e-07,0.6,1.804841418138047e-07,-0.005701014685147682
1.804993282823967e-07,0.6,1.804993282823967e-07,0.6,1.804993282823967e-07,-0.013266822641703
1.8051e-07,0.6,1.8051e-07,0.6,1.8051e-07,-0.02134167321461379
1.805100390625e-07,0.5976562499984898,1.805100390625e-07,0.6,1.805100390625e-07,-0.0213772029608621
1.805101171875e-07,0.5929687499981618,1.805101171875e-07,0.6,1.805101171875e-07,-0.02144904322399439
1.805102734375e-07,0.583593749997506,1.805102734375e-07,0.6,1.805102734375e-07,-0.02159319711398315
1.805104567337247e-07,0.5725959765165838,1.805104567337247e-07,0.6,1.805104567337247e-07,-0.02176205031399977
1.80510763964542e-07,0.5541621274785478,1.80510763964542e-07,0.6,1.80510763964542e-07,-0.02204534856902068
1.805113043629004e-07,0.5217382259758938,1.805113043629004e-07,0.6,1.805113043629004e-07,-0.02254447704502708
1.80512189537675e-07,0.468627739502152,1.80512189537675e-07,0.6,1.80512189537675e-07,-0.02336453357705888
1.805136356004646e-07,0.3818639721243353,1.805136356004646e-07,0.6,1.805136356004646e-07,-0.02471338452402871
1.805163931142387e-07,0.2164131456781602,1.805163931142387e-07,0.6,1.805163931142387e-07,-0.0273385981404085
1.805181965571193e-07,0.1082065728388609,1.805181965571193e-07,0.6,1.805181965571193e-07,-0.02910539019630974
1.8052e-07,0,1.8052e-07,0.6,1.8052e-07,-0.03091828479047991
1.805201432490225e-07,0,1.805201432490225e-07,0.6,1.805201432490225e-07,-0.03106001821226265
1.805204297470674e-07,0,1.805204297470674e-07,0.6,1.805204297470674e-07,-0.03134442117334024
1.805205532107375e-07,0,1.805205532107375e-07,0.6,1.805205532107375e-07,-0.03146808275997259
1.805208001380777e-07,0,1.805208001380777e-07,0.6,1.805208001380777e-07,-0.03171778079913774
1.805212939927581e-07,0,1.805212939927581e-07,0.6,1.805212939927581e-07,-0.03222551623895621
1.805219614765864e-07,0,1.805219614765864e-07,0.6,1.805219614765864e-07,-0.03292900067517486
1.805222952185005e-07,0,1.805222952185005e-07,0.6,1.805222952185005e-07,-0.0332878013283821
1.805229627023288e-07,0,1.805229627023288e-07,0.6,1.805229627023288e-07,-0.03401889360438466
1.805242976699853e-07,0,1.805242976699853e-07,0.6,1.805242976699853e-07,-0.03553054769658997
1.80524898802091e-07,0,1.80524898802091e-07,0.6,1.80524898802091e-07,-0.0362315690226403
1.805261010663024e-07,0,1.805261010663024e-07,0.6,1.805261010663024e-07,-0.03766693806462824
1.805285055947251e-07,0,1.805285055947251e-07,0.6,1.805285055947251e-07,-0.04065313383677571
1.805332892621032e-07,0,1.805332892621032e-07,0.6,1.805332892621032e-07,-0.04692816421259211
1.805348771069823e-07,0,1.805348771069823e-07,0.6,1.805348771069823e-07,-0.0490869687490263
1.805380527967407e-07,0,1.805380527967407e-07,0.6,1.805380527967407e-07,-0.05346006372133402
1.805444041762573e-07,0,1.805444041762573e-07,0.6,1.805444041762573e-07,-0.06223709288545822
1.805541791403042e-07,0,1.805541791403042e-07,0.6,1.805541791403042e-07,-0.07498690554575532
1.805661821456202e-07,0,1.805661821456202e-07,0.6,1.805661821456202e-07,-0.08665651215877375
1.805819072540282e-07,0,1.805819072540282e-07,0.6,1.805819072540282e-07,-0.08449598145638063
1.805953979608225e-07,0,1.805953979608225e-07,0.6,1.805953979608225e-07,-0.05340307997611111
1.806079045386824e-07,0,1.806079045386824e-07,0.6,1.806079045386824e-07,0.009901086316101265
1.80620757768749e-07,0,1.80620757768749e-07,0.6,1.80620757768749e-07,0.1077985638474246
1.806315891682315e-07,0,1.806315891682315e-07,0.6,1.806315891682315e-07,0.2066187024942492
1.806432385248956e-07,0,1.806432385248956e-07,0.6,1.806432385248956e-07,0.3172916766564488
1.806539316352883e-07,0,1.806539316352883e-07,0.6,1.806539316352883e-07,0.4152700488428162
1.806658375686054e-07,0,1.806658375686054e-07,0.6,1.806658375686054e-07,0.5108186974290144
1.806774766008815e-07,0,1.806774766008815e-07,0.6,1.806774766008815e-07,0.5709497795899748
1.806866853827246e-07,0,1.806866853827246e-07,0.6,1.806866853827246e-07,0.589467457112429
1.806987919930147e-07,0,1.806987919930147e-07,0.6,1.806987919930147e-07,0.5968900071224952
1.807073324935614e-07,0,1.807073324935614e-07,0.6,1.807073324935614e-07,0.5983022054941312
1.807176647946743e-07,0,1.807176647946743e-07,0.6,1.807176647946743e-07,0.5990090103946073
1.807321439897112e-07,0,1.807321439897112e-07,0.6,1.807321439897112e-07,0.5992486479682224
1.807582297435914e-07,0,1.807582297435914e-07,0.6,1.807582297435914e-07,0.5990940755015446
1.807816922198784e-07,0,1.807816922198784e-07,0.6,1.807816922198784e-07,0.5989922820611163
1.808043778126222e-07,0,1.808043778126222e-07,0.6,1.808043778126222e-07,0.5992076248251705
1.808261305086329e-07,0,1.808261305086329e-07,0.6,1.808261305086329e-07,0.5999658525116238
1.808503635401648e-07,0,1.808503635401648e-07,0.6,1.808503635401648e-07,0.6027760549684703
1.808689996650517e-07,0,1.808689996650517e-07,0.6,1.808689996650517e-07,0.6084993238058722
1.808865654430062e-07,0,1.808865654430062e-07,0.6,1.808865654430062e-07,0.6216731541235676
1.809084315189341e-07,0,1.809084315189341e-07,0.6,1.809084315189341e-07,0.6506616656529889
1.809249011402352e-07,0,1.809249011402352e-07,0.6,1.809249011402352e-07,0.6751785895250423
1.809393557815245e-07,0,1.809393557815245e-07,0.6,1.809393557815245e-07,0.6868562839285695
