/D (x=0.8) X,/D (x=0.8) Y,/CLK (x=0.8) X,/CLK (x=0.8) Y,/Q (x=0.8) X,/Q (x=0.8) Y
0,0,0,0,0,4.910393766810316e-08
3.90625e-14,0.003125,3.90625e-14,0,3.90625e-14,1.244987724531587e-07
1.171875e-13,0.009375000000000001,1.171875e-13,0,1.171875e-13,4.475419402681545e-07
1.5625e-13,0.0125,1.5625e-13,0,1.5625e-13,6.243623125706318e-07
2.34375e-13,0.01875000000000001,2.34375e-13,0,2.34375e-13,1.010393459401267e-06
3.906250000000001e-13,0.03125000000000001,3.906250000000001e-13,0,3.906250000000001e-13,1.693610070175577e-06
6.576915921757058e-13,0.05261532737405646,6.576915921757058e-13,0,6.576915921757058e-13,2.760144596891652e-06
1.191824776527117e-12,0.09534598212216938,1.191824776527117e-12,0,1.191824776527117e-12,3.586034810840599e-06
2.175466044354136e-12,0.1740372835483309,2.175466044354136e-12,0,2.175466044354136e-12,3.130034046696123e-06
3.883572327640965e-12,0.3106857862112772,3.883572327640965e-12,0,3.883572327640965e-12,4.697839597918551e-07
6.686681278286561e-12,0.5349345022629249,6.686681278286561e-12,0,6.686681278286561e-12,-3.486490260704006e-06
8.34334063914328e-12,0.6674672511314624,8.34334063914328e-12,0,8.34334063914328e-12,-3.12801335461063e-06
9.17167031957164e-12,0.7337336255657313,9.17167031957164e-12,0,9.17167031957164e-12,-2.423846603243076e-06
9.999999999999999e-12,0.8,9.999999999999999e-12,0,9.999999999999999e-12,-1.746163828772948e-06
1.0056508855074e-11,0.8,1.0056508855074e-11,0,1.0056508855074e-11,-1.8030757965461e-06
1.016952656522201e-11,0.8,1.016952656522201e-11,0,1.016952656522201e-11,-2.044646428838526e-06
1.022603542029601e-11,0.8,1.022603542029601e-11,0,1.022603542029601e-11,-2.214788413827272e-06
1.033905313044401e-11,0.8,1.033905313044401e-11,0,1.033905313044401e-11,-2.469377137660957e-06
1.055472064000453e-11,0.8,1.055472064000453e-11,0,1.055472064000453e-11,-2.806844039460735e-06
1.063354196973963e-11,0.8,1.063354196973963e-11,0,1.063354196973963e-11,-2.89326705882733e-06
1.079118462920981e-11,0.8,1.079118462920981e-11,0,1.079118462920981e-11,-3.002301087672541e-06
1.110646994815018e-11,0.8,1.110646994815018e-11,0,1.110646994815018e-11,-3.041230223745469e-06
1.173704058603092e-11,0.8,1.173704058603092e-11,0,1.173704058603092e-11,-2.602386121897198e-06
1.203148980655431e-11,0.8,1.203148980655431e-11,0,1.203148980655431e-11,-2.625522914402708e-06
1.262038824760111e-11,0.8,1.262038824760111e-11,0,1.262038824760111e-11,-1.611249536752345e-06
1.37981851296947e-11,0.8,1.37981851296947e-11,0,1.37981851296947e-11,3.281221596261244e-07
1.549759930101132e-11,0.8,1.549759930101132e-11,0,1.549759930101132e-11,2.06292154992708e-06
1.750705037479171e-11,0.8,1.750705037479171e-11,0,1.750705037479171e-11,2.747835676652938e-06
1.911314301344765e-11,0.8,1.911314301344765e-11,0,1.911314301344765e-11,2.290731799785108e-06
2.05773195519253e-11,0.8,2.05773195519253e-11,0,2.05773195519253e-11,1.774228783999483e-06
2.219558598319029e-11,0.8,2.219558598319029e-11,0,2.219558598319029e-11,1.166154030703124e-06
2.456458039952519e-11,0.8,2.456458039952519e-11,0,2.456458039952519e-11,4.529948862817953e-07
2.803908065365873e-11,0.8,2.803908065365873e-11,0,2.803908065365873e-11,-2.199387997749419e-07
3.353701978201519e-11,0.8,3.353701978201519e-11,0,3.353701978201519e-11,-4.487651652370889e-07
4.311092850396319e-11,0.8,4.311092850396319e-11,0,4.311092850396319e-11,-1.352544733775046e-07
5.5857359650084e-11,0.8,5.5857359650084e-11,0,5.5857359650084e-11,1.366350045475454e-07
6.957159962720342e-11,0.8,6.957159962720342e-11,0,6.957159962720342e-11,8.187110958165302e-08
8.395632525038349e-11,0.8,8.395632525038349e-11,0,8.395632525038349e-11,1.250740796101865e-07
9.911598935294279e-11,0.8,9.911598935294279e-11,0,9.911598935294279e-11,2.679646949697119e-07
1.105012506677653e-10,0.8,1.105012506677653e-10,0,1.105012506677653e-10,2.549641954351597e-07
1.201416291121777e-10,0.8,1.201416291121777e-10,0,1.201416291121777e-10,-1.211932502112955e-07
1.302750383123499e-10,0.8,1.302750383123499e-10,0,1.302750383123499e-10,-5.763493831147317e-07
1.372102181164345e-10,0.8,1.372102181164345e-10,0,1.372102181164345e-10,-1.746388008535481e-06
1.424212193513832e-10,0.8,1.424212193513832e-10,0,1.424212193513832e-10,-1.367141967709813e-06
1.479733408979607e-10,0.8,1.479733408979607e-10,0,1.479733408979607e-10,-9.263486623710608e-07
1.529518385003384e-10,0.8,1.529518385003384e-10,0,1.529518385003384e-10,2.52285111667607e-07
1.569453621321001e-10,0.8,1.569453621321001e-10,0,1.569453621321001e-10,2.059604655927723e-06
1.610198650950177e-10,0.8,1.610198650950177e-10,0,1.610198650950177e-10,3.037012694738674e-06
1.66849813948557e-10,0.8,1.66849813948557e-10,0,1.66849813948557e-10,2.781356381103543e-06
1.724092380561402e-10,0.8,1.724092380561402e-10,0,1.724092380561402e-10,5.203461327297504e-07
1.798823870797273e-10,0.8,1.798823870797273e-10,0,1.798823870797273e-10,-8.125068117900418e-07
1.883782889213362e-10,0.8,1.883782889213362e-10,0,1.883782889213362e-10,-7.922153390591855e-07
1.994024297612554e-10,0.8,1.994024297612554e-10,0,1.994024297612554e-10,-2.760815720307227e-07
2.137445717367583e-10,0.8,2.137445717367583e-10,0,2.137445717367583e-10,7.406984059981376e-08
2.33638339171285e-10,0.8,2.33638339171285e-10,0,2.33638339171285e-10,7.193370325179633e-08
2.591642053563447e-10,0.8,2.591642053563447e-10,0,2.591642053563447e-10,5.6328766321539e-08
2.930184253465534e-10,0.8,2.930184253465534e-10,0,2.930184253465534e-10,5.159771482444996e-08
3.37540216524747e-10,0.8,3.37540216524747e-10,0,3.37540216524747e-10,4.812947936566789e-08
3.969519363903815e-10,0.8,3.969519363903815e-10,0,3.969519363903815e-10,5.168955365969003e-08
4.760256698764678e-10,0.8,4.760256698764678e-10,0,4.760256698764678e-10,4.77352838046463e-08
5.818789525834872e-10,0.8,5.818789525834872e-10,0,5.818789525834872e-10,5.087800114877856e-08
7.239428483287566e-10,0.8,7.239428483287566e-10,0,7.239428483287566e-10,4.863842621567568e-08
9.153897365543625e-10,0.8,9.153897365543625e-10,0,9.153897365543625e-10,4.999069956470442e-08
1.174356682508531e-09,0.8,1.174356682508531e-09,0,1.174356682508531e-09,4.937511163967439e-08
1.525522517762976e-09,0.8,1.525522517762976e-09,0,1.525522517762976e-09,4.940323750653689e-08
2.003395239470069e-09,0.8,2.003395239470069e-09,0,2.003395239470069e-09,4.982673396336798e-08
2.65468417143781e-09,0.8,2.65468417143781e-09,0,2.65468417143781e-09,4.906176273447253e-08
3.545105477341127e-09,0.8,3.545105477341127e-09,0,3.545105477341127e-09,5.008167176565337e-08
4.763506079106447e-09,0.8,4.763506079106447e-09,0,4.763506079106447e-09,4.887294005898793e-08
6.435181370669143e-09,0.8,6.435181370669143e-09,0,6.435181370669143e-09,5.022072616704359e-08
8.729588344491467e-09,0.8,8.729588344491467e-09,0,8.729588344491467e-09,4.877097715509591e-08
1.188602085280906e-08,0.8,1.188602085280906e-08,0,1.188602085280906e-08,5.02952656210937e-08
1.588602085280906e-08,0.8,1.588602085280906e-08,0,1.588602085280906e-08,4.871466353456753e-08
1.988602085280906e-08,0.8,1.988602085280906e-08,0,1.988602085280906e-08,5.034506953151614e-08
2.388602085280906e-08,0.8,2.388602085280906e-08,0,2.388602085280906e-08,4.866474796838124e-08
2.788602085280906e-08,0.8,2.788602085280906e-08,0,2.788602085280906e-08,5.039509535652363e-08
3.188602085280906e-08,0.8,3.188602085280906e-08,0,3.188602085280906e-08,4.861461324641761e-08
3.588602085280906e-08,0.8,3.588602085280906e-08,0,3.588602085280906e-08,5.044533760482089e-08
3.988602085280907e-08,0.8,3.988602085280907e-08,0,3.988602085280907e-08,4.856426483126495e-08
4.388602085280907e-08,0.8,4.388602085280907e-08,0,4.388602085280907e-08,5.049579082802155e-08
4.788602085280907e-08,0.8,4.788602085280907e-08,0,4.788602085280907e-08,4.851370815252642e-08
5.188602085280908e-08,0.8,5.188602085280908e-08,0,5.188602085280908e-08,5.054644961308735e-08
5.588602085280908e-08,0.8,5.588602085280908e-08,0,5.588602085280908e-08,4.846294860507664e-08
5.988602085280908e-08,0.8,5.988602085280908e-08,0,5.988602085280908e-08,5.059730858255112e-08
6.388602085280908e-08,0.8,6.388602085280908e-08,0,6.388602085280908e-08,4.841199154901142e-08
6.788602085280907e-08,0.8,6.788602085280907e-08,0,6.788602085280907e-08,5.064836239396006e-08
7.188602085280907e-08,0.8,7.188602085280907e-08,0,7.188602085280907e-08,4.83608423086241e-08
7.588602085280907e-08,0.8,7.588602085280907e-08,0,7.588602085280907e-08,5.06996057413496e-08
7.988602085280906e-08,0.8,7.988602085280906e-08,0,7.988602085280906e-08,4.830950617181979e-08
8.388602085280906e-08,0.8,8.388602085280906e-08,0,8.388602085280906e-08,5.075103335424624e-08
8.788602085280905e-08,0.8,8.788602085280905e-08,0,8.788602085280905e-08,4.825798839133709e-08
9.188602085280905e-08,0.8,9.188602085280905e-08,0,9.188602085280905e-08,5.080263999882524e-08
9.588602085280905e-08,0.8,9.588602085280905e-08,0,9.588602085280905e-08,4.820629418179668e-08
9.988602085280904e-08,0.8,9.988602085280904e-08,0,9.988602085280904e-08,5.085442047835441e-08
1.03886020852809e-07,0.8,1.03886020852809e-07,0,1.03886020852809e-07,4.815442872228955e-08
1.07886020852809e-07,0.8,1.07886020852809e-07,0,1.07886020852809e-07,5.090636963249159e-08
1.11886020852809e-07,0.8,1.11886020852809e-07,0,1.11886020852809e-07,4.810239715377725e-08
1.15886020852809e-07,0.8,1.15886020852809e-07,0,1.15886020852809e-07,5.095848233918501e-08
1.19886020852809e-07,0.8,1.19886020852809e-07,0,1.19886020852809e-07,4.80502045804724e-08
1.23886020852809e-07,0.8,1.23886020852809e-07,0,1.23886020852809e-07,5.101075351270666e-08
1.278860208528091e-07,0.8,1.278860208528091e-07,0,1.278860208528091e-07,4.799785606850187e-08
1.318860208528091e-07,0.8,1.318860208528091e-07,0,1.318860208528091e-07,5.106317810581628e-08
1.358860208528091e-07,0.8,1.358860208528091e-07,0,1.358860208528091e-07,4.794535664658249e-08
1.398860208528091e-07,0.8,1.398860208528091e-07,0,1.398860208528091e-07,5.111575110926271e-08
1.438860208528091e-07,0.8,1.438860208528091e-07,0,1.438860208528091e-07,4.78927113043798e-08
1.478860208528091e-07,0.8,1.478860208528091e-07,0,1.478860208528091e-07,5.116846755227646e-08
1.518860208528091e-07,0.8,1.518860208528091e-07,0,1.518860208528091e-07,4.783992499338707e-08
1.558860208528091e-07,0.8,1.558860208528091e-07,0,1.558860208528091e-07,5.122132250306259e-08
1.598860208528091e-07,0.8,1.598860208528091e-07,0,1.598860208528091e-07,4.778700262610669e-08
1.638860208528091e-07,0.8,1.638860208528091e-07,0,1.638860208528091e-07,5.127431106834933e-08
1.678860208528091e-07,0.8,1.678860208528091e-07,0,1.678860208528091e-07,4.773394907627873e-08
1.718860208528092e-07,0.8,1.718860208528092e-07,0,1.718860208528092e-07,5.132742839386259e-08
1.758860208528092e-07,0.8,1.758860208528092e-07,0,1.758860208528092e-07,4.768076917873353e-08
1.779430104264046e-07,0.8,1.779430104264046e-07,0,1.779430104264046e-07,5.140585669023113e-08
1.8e-07,0.8,1.8e-07,0,1.8e-07,4.757701292596032e-08
1.80000009765625e-07,0.8,1.80000009765625e-07,0.0007812499989958615,1.80000009765625e-07,2.41489144644954e-07
1.80000029296875e-07,0.8,1.80000029296875e-07,0.002343749996987585,1.80000029296875e-07,1.025885110180287e-06
1.800000683593749e-07,0.8,1.800000683593749e-07,0.005468749992971031,1.800000683593749e-07,4.047071949050169e-06
1.800000859628323e-07,0.8,1.800000859628323e-07,0.006877026585676039,1.800000859628323e-07,5.661743944003666e-06
1.800001211697471e-07,0.8,1.800001211697471e-07,0.009693579771086057,1.800001211697471e-07,8.759218160581934e-06
1.800001915835768e-07,0.8,1.800001915835768e-07,0.01532668614190609,1.800001915835768e-07,1.461919607393867e-05
1.800003294686107e-07,0.8,1.800003294686107e-07,0.02635748885680795,1.800003294686107e-07,2.496453977483521e-05
1.800003922692688e-07,0.8,1.800003922692688e-07,0.03138154150627169,1.800003922692688e-07,2.921288358407573e-05
1.800005178705851e-07,0.8,1.800005178705851e-07,0.04142964680519916,1.800005178705851e-07,3.687482580834551e-05
1.800007690732175e-07,0.8,1.800007690732175e-07,0.06152585740305413,1.800007690732175e-07,5.801533673473801e-05
1.800012714784825e-07,0.8,1.800012714784825e-07,0.101718278598764,1.800012714784825e-07,7.471564100605838e-05
1.800022762890124e-07,0.8,1.800022762890124e-07,0.1821031209901839,1.800022762890124e-07,8.080601164896521e-05
1.800042467894415e-07,0.8,1.800042467894415e-07,0.3397431553226377,1.800042467894415e-07,4.792545412428229e-05
1.800062603884469e-07,0.8,1.800062603884469e-07,0.5008310757560673,1.800062603884469e-07,-7.937303767966781e-06
1.800081301942235e-07,0.8,1.800081301942235e-07,0.6504155378774285,1.800081301942235e-07,-4.047434655954648e-05
1.800090650971117e-07,0.8,1.800090650971117e-07,0.725207768938109,1.800090650971117e-07,-4.88269720758915e-05
1.8001e-07,0.8,1.8001e-07,0.8,1.8001e-07,-5.385091491514456e-05
1.800100579570682e-07,0.8,1.800100579570682e-07,0.8,1.800100579570682e-07,-5.723319174078171e-05
1.800101738712047e-07,0.8,1.800101738712047e-07,0.8,1.800101738712047e-07,-6.514272913401787e-05
1.80010231828273e-07,0.8,1.80010231828273e-07,0.8,1.80010231828273e-07,-6.910132466341421e-05
1.800103477424094e-07,0.8,1.800103477424094e-07,0.8,1.800103477424094e-07,-7.564675035773916e-05
1.800105779503892e-07,0.8,1.800105779503892e-07,0.8,1.800105779503892e-07,-8.616316477182319e-05
1.80010915900097e-07,0.8,1.80010915900097e-07,0.8,1.80010915900097e-07,-8.782031745048391e-05
1.800115917995127e-07,0.8,1.800115917995127e-07,0.8,1.800115917995127e-07,-9.193648486418948e-05
1.800118608865275e-07,0.8,1.800118608865275e-07,0.8,1.800118608865275e-07,-9.065496396724059e-05
1.800123990605573e-07,0.8,1.800123990605573e-07,0.8,1.800123990605573e-07,-8.549314621680626e-05
1.800134754086168e-07,0.8,1.800134754086168e-07,0.8,1.800134754086168e-07,-7.403891473514748e-05
1.800156281047357e-07,0.8,1.800156281047357e-07,0.8,1.800156281047357e-07,-6.843309487583561e-05
1.800177148088789e-07,0.8,1.800177148088789e-07,0.8,1.800177148088789e-07,-5.759590605003987e-05
1.800192844870845e-07,0.8,1.800192844870845e-07,0.8,1.800192844870845e-07,-3.251026978769271e-05
1.800208147840118e-07,0.8,1.800208147840118e-07,0.8,1.800208147840118e-07,-4.560581626771304e-06
1.800225939589511e-07,0.8,1.800225939589511e-07,0.8,1.800225939589511e-07,1.771533549623393e-05
1.800254632883623e-07,0.8,1.800254632883623e-07,0.8,1.800254632883623e-07,2.785414546434764e-05
1.800296713850004e-07,0.8,1.800296713850004e-07,0.8,1.800296713850004e-07,1.381025513321286e-05
1.800360618286627e-07,0.8,1.800360618286627e-07,0.8,1.800360618286627e-07,-1.635376720045301e-05
1.80043977783696e-07,0.8,1.80043977783696e-07,0.8,1.80043977783696e-07,-4.410314013645863e-05
1.800526814952083e-07,0.8,1.800526814952083e-07,0.8,1.800526814952083e-07,-3.403959883597862e-05
1.800593604803319e-07,0.8,1.800593604803319e-07,0.8,1.800593604803319e-07,8.983611185020421e-05
1.800642273102977e-07,0.8,1.800642273102977e-07,0.8,1.800642273102977e-07,0.0003496004823435882
1.800697436699485e-07,0.8,1.800697436699485e-07,0.8,1.800697436699485e-07,0.0008740846826966668
1.800741703190758e-07,0.8,1.800741703190758e-07,0.8,1.800741703190758e-07,0.001482773495384424
1.800794805686964e-07,0.8,1.800794805686964e-07,0.8,1.800794805686964e-07,0.002889838441749658
1.80083603524724e-07,0.8,1.80083603524724e-07,0.8,1.80083603524724e-07,0.0035089131205207
1.800868520262978e-07,0.8,1.800868520262978e-07,0.8,1.800868520262978e-07,0.002454957468070663
1.800902022348974e-07,0.8,1.800902022348974e-07,0.8,1.800902022348974e-07,-0.001307335028060254
1.800933751431593e-07,0.8,1.800933751431593e-07,0.8,1.800933751431593e-07,-0.008612314102808414
1.800964628636713e-07,0.8,1.800964628636713e-07,0.8,1.800964628636713e-07,-0.01849913272593363
1.800995792784438e-07,0.8,1.800995792784438e-07,0.8,1.800995792784438e-07,-0.03266840913154574
1.801027845246533e-07,0.8,1.801027845246533e-07,0.8,1.801027845246533e-07,-0.05594254831512123
1.801061579299396e-07,0.8,1.801061579299396e-07,0.8,1.801061579299396e-07,-0.0879973722427759
1.801097974949829e-07,0.8,1.801097974949829e-07,0.8,1.801097974949829e-07,-0.1113586293719763
1.80112847875625e-07,0.8,1.80112847875625e-07,0.8,1.80112847875625e-07,-0.09325078526254631
1.801153412838557e-07,0.8,1.801153412838557e-07,0.8,1.801153412838557e-07,-0.0322569435842672
1.801177114685157e-07,0.8,1.801177114685157e-07,0.8,1.801177114685157e-07,0.06763040332390483
1.801211089515856e-07,0.8,1.801211089515856e-07,0.8,1.801211089515856e-07,0.2579992739128399
1.80123552449425e-07,0.8,1.80123552449425e-07,0.8,1.80123552449425e-07,0.4100587343260669
1.801259165694134e-07,0.8,1.801259165694134e-07,0.8,1.801259165694134e-07,0.5520790537472241
1.801281919044454e-07,0.8,1.801281919044454e-07,0.8,1.801281919044454e-07,0.6680509930304478
1.801303565398856e-07,0.8,1.801303565398856e-07,0.8,1.801303565398856e-07,0.7380348954217888
1.801322320245594e-07,0.8,1.801322320245594e-07,0.8,1.801322320245594e-07,0.7657974733148641
1.801331697668963e-07,0.8,1.801331697668963e-07,0.8,1.801331697668963e-07,0.7737051718904572
1.801349024935304e-07,0.8,1.801349024935304e-07,0.8,1.801349024935304e-07,0.7834080829785314
1.801369179621826e-07,0.8,1.801369179621826e-07,0.8,1.801369179621826e-07,0.7899539155830542
1.801393876878827e-07,0.8,1.801393876878827e-07,0.8,1.801393876878827e-07,0.7943703590682973
1.801429344156465e-07,0.8,1.801429344156465e-07,0.8,1.801429344156465e-07,0.7974397305456596
1.801473073769417e-07,0.8,1.801473073769417e-07,0.8,1.801473073769417e-07,0.7989602677193444
1.801518810363858e-07,0.8,1.801518810363858e-07,0.8,1.801518810363858e-07,0.7995659784280008
1.801573720086288e-07,0.8,1.801573720086288e-07,0.8,1.801573720086288e-07,0.7998466541000011
1.801640526225598e-07,0.8,1.801640526225598e-07,0.8,1.801640526225598e-07,0.7999578867176584
1.801725287612412e-07,0.8,1.801725287612412e-07,0.8,1.801725287612412e-07,0.7999935775873146
1.801837482309548e-07,0.8,1.801837482309548e-07,0.8,1.801837482309548e-07,0.8000004630735336
1.801999883876365e-07,0.8,1.801999883876365e-07,0.8,1.801999883876365e-07,0.8000009341963213
1.802246989693027e-07,0.8,1.802246989693027e-07,0.8,1.802246989693027e-07,0.80000070143464
1.802558396131224e-07,0.8,1.802558396131224e-07,0.8,1.802558396131224e-07,0.8000009136868246
1.802992433381724e-07,0.8,1.802992433381724e-07,0.8,1.802992433381724e-07,0.8000007195322838
1.803667600103965e-07,0.8,1.803667600103965e-07,0.8,1.803667600103965e-07,0.8000009078965865
1.804383800051983e-07,0.8,1.804383800051983e-07,0.8,1.804383800051983e-07,0.8000007191507035
1.8051e-07,0.8,1.8051e-07,0.8,1.8051e-07,0.8000009098482049
1.805100390625e-07,0.8,1.805100390625e-07,0.7968749999979865,1.805100390625e-07,0.7999994804596643
1.805101171875e-07,0.8,1.805101171875e-07,0.7906249999975492,1.805101171875e-07,0.7999958346196061
1.8051015625e-07,0.8,1.8051015625e-07,0.7874999999973307,1.8051015625e-07,0.7999938031608769
1.80510234375e-07,0.8,1.80510234375e-07,0.7812499999968934,1.80510234375e-07,0.7999902741358501
1.80510390625e-07,0.8,1.80510390625e-07,0.768749999996019,1.80510390625e-07,0.7999837805301905
1.805106297453505e-07,0.8,1.805106297453505e-07,0.7496203719636124,1.805106297453505e-07,0.7999754803254949
1.805111079860513e-07,0.8,1.805111079860513e-07,0.7113611158987995,1.805111079860513e-07,0.7999602368522426
1.805120644674529e-07,0.8,1.805120644674529e-07,0.6348426037691735,1.805120644674529e-07,0.7999494881817806
1.805136716325069e-07,0.8,1.805136716325069e-07,0.5062693994483093,1.805136716325069e-07,0.7999545657176401
1.805158773671827e-07,0.8,1.805158773671827e-07,0.3298106253839072,1.805158773671827e-07,0.7999853560416507
1.805183271257484e-07,0.8,1.805183271257484e-07,0.133829940130609,1.805183271257484e-07,0.8000415267519786
1.8052e-07,0.8,1.8052e-07,0,1.8052e-07,0.8000942216376182
1.805200886862615e-07,0.8,1.805200886862615e-07,0,1.805200886862615e-07,0.8000999614124275
1.805202660587844e-07,0.8,1.805202660587844e-07,0,1.805202660587844e-07,0.8001115734756664
1.805206208038303e-07,0.8,1.805206208038303e-07,0,1.805206208038303e-07,0.8001331701362515
1.805207013422535e-07,0.8,1.805207013422535e-07,0,1.805207013422535e-07,0.8001365455977268
