/CLK (x=0.7) X,/CLK (x=0.7) Y,/D (x=0.7) X,/D (x=0.7) Y,/Q (x=0.7) X,/Q (x=0.7) Y
0,0,0,0,0,6.910941346348095e-08
3.90625e-14,0,3.90625e-14,0.002734375,3.90625e-14,1.333284094230619e-07
1.171875e-13,0,1.171875e-13,0.008203125,1.171875e-13,4.080397624814247e-07
1.5625e-13,0,1.5625e-13,0.0109375,1.5625e-13,5.585469862127082e-07
2.34375e-13,0,2.34375e-13,0.01640625,2.34375e-13,8.908969893012893e-07
3.906250000000001e-13,0,3.906250000000001e-13,0.02734375000000001,3.906250000000001e-13,1.513509033577237e-06
6.666595434838133e-13,0,6.666595434838133e-13,0.04666616804386693,6.666595434838133e-13,2.600518071253356e-06
1.21872863045144e-12,0,1.21872863045144e-12,0.08531100413160078,1.21872863045144e-12,3.925118420350158e-06
2.285381542963921e-12,0,2.285381542963921e-12,0.1599767080074745,2.285381542963921e-12,4.730940989888149e-06
4.418687367988883e-12,0,4.418687367988883e-12,0.3093081157592218,4.418687367988883e-12,2.406071833796352e-06
7.209343683994441e-12,0,7.209343683994441e-12,0.5046540578796108,7.209343683994441e-12,-1.955390126966598e-06
8.60467184199722e-12,0,8.60467184199722e-12,0.6023270289398054,8.60467184199722e-12,-2.981159614626859e-06
9.999999999999999e-12,0,9.999999999999999e-12,0.7,9.999999999999999e-12,-3.314214931781277e-06
1.006865118750496e-11,0,1.006865118750496e-11,0.7,1.006865118750496e-11,-3.446776525302066e-06
1.020595356251487e-11,0,1.020595356251487e-11,0.7,1.020595356251487e-11,-3.839212410506422e-06
1.027460475001983e-11,0,1.027460475001983e-11,0.7,1.027460475001983e-11,-4.071549748758914e-06
1.041190712502974e-11,0,1.041190712502974e-11,0.7,1.041190712502974e-11,-4.447668123479205e-06
1.068355991264267e-11,0,1.068355991264267e-11,0.7,1.068355991264267e-11,-5.054005931964235e-06
1.078143492384323e-11,0,1.078143492384323e-11,0.7,1.078143492384323e-11,-5.229339041129917e-06
1.097718494624436e-11,0,1.097718494624436e-11,0.7,1.097718494624436e-11,-5.517591502006949e-06
1.13686849910466e-11,0,1.13686849910466e-11,0.7,1.13686849910466e-11,-5.885926209752576e-06
1.215168508065109e-11,0,1.215168508065109e-11,0.7,1.215168508065109e-11,-5.963328309941343e-06
1.254318512545334e-11,0,1.254318512545334e-11,0.7,1.254318512545334e-11,-5.750895133213236e-06
1.332618521505783e-11,0,1.332618521505783e-11,0.7,1.332618521505783e-11,-5.024559604539836e-06
1.489218539426681e-11,0,1.489218539426681e-11,0.7,1.489218539426681e-11,-3.451792889627943e-06
1.719768728009493e-11,0,1.719768728009493e-11,0.7,1.719768728009493e-11,-1.301586938217189e-07
1.967562842673645e-11,0,1.967562842673645e-11,0.7,1.967562842673645e-11,1.920035184038681e-06
2.263763336985677e-11,0,2.263763336985677e-11,0.7,2.263763336985677e-11,2.741893648532e-06
2.630739671262082e-11,0,2.630739671262082e-11,0.7,2.630739671262082e-11,2.410970254674525e-06
2.979690780691013e-11,0,2.979690780691013e-11,0.7,2.979690780691013e-11,1.437005148665927e-06
3.272671955003296e-11,0,3.272671955003296e-11,0.7,3.272671955003296e-11,8.017394122119367e-07
3.589241208359951e-11,0,3.589241208359951e-11,0.7,3.589241208359951e-11,2.838570063696041e-07
4.010751382304162e-11,0,4.010751382304162e-11,0.7,4.010751382304162e-11,-1.257516294182074e-07
4.709408976324754e-11,0,4.709408976324754e-11,0.7,4.709408976324754e-11,-3.544283543697618e-07
5.874405778136219e-11,0,5.874405778136219e-11,0.7,5.874405778136219e-11,-1.875210779893355e-07
7.791373732038035e-11,0,7.791373732038035e-11,0.7,7.791373732038035e-11,1.001437712212703e-07
1.03211255700844e-10,0,1.03211255700844e-10,0.7,1.03211255700844e-10,1.108572040637543e-07
1.301922399470441e-10,0,1.301922399470441e-10,0.7,1.301922399470441e-10,6.797718565470398e-08
1.634957845649398e-10,0,1.634957845649398e-10,0.7,1.634957845649398e-10,8.978084593622411e-08
1.936718953182705e-10,0,1.936718953182705e-10,0.7,1.936718953182705e-10,1.574948653401607e-07
2.18786282881545e-10,0,2.18786282881545e-10,0.7,2.18786282881545e-10,2.043832614567775e-07
2.376125581832316e-10,0,2.376125581832316e-10,0.7,2.376125581832316e-10,-1.429926123169501e-08
2.548054754372364e-10,0,2.548054754372364e-10,0.7,2.548054754372364e-10,-5.36755864600062e-07
2.608090690055446e-10,0,2.608090690055446e-10,0.7,2.608090690055446e-10,-7.218632058783497e-07
2.728162561421609e-10,0,2.728162561421609e-10,0.7,2.728162561421609e-10,-2.773450052112685e-07
2.832852837923411e-10,0,2.832852837923411e-10,0.7,2.832852837923411e-10,-3.357010659183429e-07
2.929368524071263e-10,0,2.929368524071263e-10,0.7,2.929368524071263e-10,-6.220292067783626e-07
2.995458535853206e-10,0,2.995458535853206e-10,0.7,2.995458535853206e-10,3.294867972465849e-07
3.065859548058233e-10,0,3.065859548058233e-10,0.7,3.065859548058233e-10,1.314046251481341e-06
3.133479272502022e-10,0,3.133479272502022e-10,0.7,3.133479272502022e-10,1.859665402823877e-06
3.221274566582337e-10,0,3.221274566582337e-10,0.7,3.221274566582337e-10,1.636891894383107e-06
3.312232046037981e-10,0,3.312232046037981e-10,0.7,3.312232046037981e-10,4.153530439190544e-07
3.437000062502991e-10,0,3.437000062502991e-10,0.7,3.437000062502991e-10,-4.430917062485344e-07
3.584916328141596e-10,0,3.584916328141596e-10,0.7,3.584916328141596e-10,-4.838838700279614e-07
3.779115078173218e-10,0,3.779115078173218e-10,0.7,3.779115078173218e-10,-1.147999432753447e-07
4.041539186068772e-10,0,4.041539186068772e-10,0.7,4.041539186068772e-10,9.774318433704172e-08
4.40645263829586e-10,0,4.40645263829586e-10,0.7,4.40645263829586e-10,8.67411855450876e-08
4.875722700323327e-10,0,4.875722700323327e-10,0.7,4.875722700323327e-10,6.379265246862041e-08
5.494717420005502e-10,0,5.494717420005502e-10,0.7,5.494717420005502e-10,7.719758710054522e-08
6.307634113470629e-10,0,6.307634113470629e-10,0.7,6.307634113470629e-10,6.255591067676921e-08
7.392107824353785e-10,0,7.392107824353785e-10,0.7,7.392107824353785e-10,7.501333466684504e-08
8.836909883960254e-10,0,8.836909883960254e-10,0.7,8.836909883960254e-10,6.422668983737282e-08
1.077070673575382e-09,0,1.077070673575382e-09,0.7,1.077070673575382e-09,7.314858688572476e-08
1.336361144295413e-09,0,1.336361144295413e-09,0.7,1.336361144295413e-09,6.578775391963688e-08
1.685173119933741e-09,0,1.685173119933741e-09,0.7,1.685173119933741e-09,7.187096544711669e-08
2.155785421696011e-09,0,2.155785421696011e-09,0.7,2.155785421696011e-09,6.677923905955445e-08
2.791895463324206e-09,0,2.791895463324206e-09,0.7,2.791895463324206e-09,7.111430304475807e-08
3.65395790545954e-09,0,3.65395790545954e-09,0.7,3.65395790545954e-09,6.734770632904486e-08
4.823450619225738e-09,0,4.823450619225738e-09,0.7,4.823450619225738e-09,7.069049765058937e-08
6.413736845687608e-09,0,6.413736845687608e-09,0.7,6.413736845687608e-09,6.766183817076798e-08
8.577425799486456e-09,0,8.577425799486456e-09,0.7,8.577425799486456e-09,7.045854106474259e-08
1.152726828017397e-08,0,1.152726828017397e-08,0.7,1.152726828017397e-08,6.783265707261565e-08
1.552726828017396e-08,0,1.552726828017396e-08,0.7,1.552726828017396e-08,7.033271851376232e-08
1.952726828017396e-08,0,1.952726828017396e-08,0.7,1.952726828017396e-08,6.793962420958736e-08
2.352726828017396e-08,0,2.352726828017396e-08,0.7,2.352726828017396e-08,7.02256259695304e-08
2.752726828017396e-08,0,2.752726828017396e-08,0.7,2.752726828017396e-08,6.804683516483898e-08
3.152726828017396e-08,0,3.152726828017396e-08,0.7,3.152726828017396e-08,7.01183034626624e-08
3.552726828017397e-08,0,3.552726828017397e-08,0.7,3.552726828017397e-08,6.815426234183005e-08
3.952726828017397e-08,0,3.952726828017397e-08,0.7,3.952726828017397e-08,7.001077845269728e-08
4.352726828017397e-08,0,4.352726828017397e-08,0.7,4.352726828017397e-08,6.826187836146877e-08
4.752726828017397e-08,0,4.752726828017397e-08,0.7,4.752726828017397e-08,6.990307821651061e-08
5.152726828017398e-08,0,5.152726828017398e-08,0.7,5.152726828017398e-08,6.8369656043494e-08
5.552726828017398e-08,0,5.552726828017398e-08,0.7,5.552726828017398e-08,6.979522983061323e-08
5.952726828017398e-08,0,5.952726828017398e-08,0.7,5.952726828017398e-08,6.847756841760967e-08
6.352726828017398e-08,0,6.352726828017398e-08,0.7,6.352726828017398e-08,6.968726015432337e-08
6.752726828017397e-08,0,6.752726828017397e-08,0.7,6.752726828017397e-08,6.85855887381974e-08
7.152726828017397e-08,0,7.152726828017397e-08,0.7,7.152726828017397e-08,6.957919581680201e-08
7.552726828017397e-08,0,7.552726828017397e-08,0.7,7.552726828017397e-08,6.869369049659846e-08
7.952726828017396e-08,0,7.952726828017396e-08,0.7,7.952726828017396e-08,6.947106320172315e-08
8.352726828017396e-08,0,8.352726828017396e-08,0.7,8.352726828017396e-08,6.880184743666708e-08
8.752726828017395e-08,0,8.752726828017395e-08,0.7,8.752726828017395e-08,6.936288843479805e-08
9.152726828017395e-08,0,9.152726828017395e-08,0.7,9.152726828017395e-08,6.891003356603994e-08
9.552726828017395e-08,0,9.552726828017395e-08,0.7,9.552726828017395e-08,6.925469737208854e-08
9.952726828017394e-08,0,9.952726828017394e-08,0.7,9.952726828017394e-08,6.901822316844316e-08
1.035272682801739e-07,0,1.035272682801739e-07,0.7,1.035272682801739e-07,6.914651558808054e-08
1.075272682801739e-07,0,1.075272682801739e-07,0.7,1.075272682801739e-07,6.91263908129273e-08
1.115272682801739e-07,0,1.115272682801739e-07,0.7,1.115272682801739e-07,6.903836836601168e-08
1.155272682801739e-07,0,1.155272682801739e-07,0.7,1.155272682801739e-07,6.92345113665591e-08
1.195272682801739e-07,0,1.195272682801739e-07,0.7,1.195272682801739e-07,6.893028068863295e-08
1.235272682801739e-07,0,1.235272682801739e-07,0.7,1.235272682801739e-07,6.934255999978744e-08
1.27527268280174e-07,0,1.27527268280174e-07,0.7,1.27527268280174e-07,6.882227722819173e-08
1.31527268280174e-07,0,1.31527268280174e-07,0.7,1.31527268280174e-07,6.945051219868244e-08
1.35527268280174e-07,0,1.35527268280174e-07,0.7,1.35527268280174e-07,6.871438233848952e-08
1.39527268280174e-07,0,1.39527268280174e-07,0.7,1.39527268280174e-07,6.955834377305875e-08
1.43527268280174e-07,0,1.43527268280174e-07,0.7,1.43527268280174e-07,6.860662004372326e-08
1.47527268280174e-07,0,1.47527268280174e-07,0.7,1.47527268280174e-07,6.966603086623604e-08
1.51527268280174e-07,0,1.51527268280174e-07,0.7,1.51527268280174e-07,6.849901403166128e-08
1.55527268280174e-07,0,1.55527268280174e-07,0.7,1.55527268280174e-07,6.977354995986399e-08
1.59527268280174e-07,0,1.59527268280174e-07,0.7,1.59527268280174e-07,6.839158764966971e-08
1.63527268280174e-07,0,1.63527268280174e-07,0.7,1.63527268280174e-07,6.988087788111405e-08
1.67527268280174e-07,0,1.67527268280174e-07,0.7,1.67527268280174e-07,6.828436389467014e-08
1.715272682801741e-07,0,1.715272682801741e-07,0.7,1.715272682801741e-07,6.998799180862691e-08
1.755272682801741e-07,0,1.755272682801741e-07,0.7,1.755272682801741e-07,6.817736541064324e-08
1.77763634140087e-07,0,1.77763634140087e-07,0.7,1.77763634140087e-07,7.013694117112842e-08
1.8e-07,0,1.8e-07,0.7,1.8e-07,6.798661970980648e-08
1.80000009765625e-07,0.0006835937491213788,1.80000009765625e-07,0.7,1.80000009765625e-07,2.046019407169186e-07
1.80000029296875e-07,0.002050781247364136,1.80000029296875e-07,0.7,1.80000029296875e-07,7.832406457880787e-07
1.800000683593749e-07,0.004785156243849651,1.800000683593749e-07,0.7,1.800000683593749e-07,3.286507221966237e-06
1.800000859172574e-07,0.006014208017691028,1.800000859172574e-07,0.7,1.800000859172574e-07,4.341013917080759e-06
1.800001210330224e-07,0.008472311565373782,1.800001210330224e-07,0.7,1.800001210330224e-07,6.352507244357148e-06
1.800001912645523e-07,0.01338851866073929,1.800001912645523e-07,0.7,1.800001912645523e-07,1.088878750132493e-05
1.800003317276122e-07,0.0232209328514703,1.800003317276122e-07,0.7,1.800003317276122e-07,1.899122094623614e-05
1.800006126537319e-07,0.04288576123293232,1.800006126537319e-07,0.7,1.800006126537319e-07,3.372035057886766e-05
1.800011745059714e-07,0.08221541799585637,1.800011745059714e-07,0.7,1.800011745059714e-07,6.493312728800832e-05
1.800022982104503e-07,0.1608747315217045,1.800022982104503e-07,0.7,1.800022982104503e-07,9.321693731869992e-05
1.800045456194082e-07,0.3181933585734007,1.800045456194082e-07,0.7,1.800045456194082e-07,8.752622188668171e-05
1.800072728097041e-07,0.5090966792861708,1.800072728097041e-07,0.7,1.800072728097041e-07,3.345710122506232e-05
1.800086364048521e-07,0.6045483396444087,1.800086364048521e-07,0.7,1.800086364048521e-07,6.382074301129262e-06
1.8001e-07,0.7,1.8001e-07,0.7,1.8001e-07,-1.846780171033343e-05
1.800100702188974e-07,0.7,1.800100702188974e-07,0.7,1.800100702188974e-07,-2.269272458102108e-05
1.800102106566921e-07,0.7,1.800102106566921e-07,0.7,1.800102106566921e-07,-3.193361743749202e-05
1.800102808755895e-07,0.7,1.800102808755895e-07,0.7,1.800102808755895e-07,-3.654989897421134e-05
1.800104213133842e-07,0.7,1.800104213133842e-07,0.7,1.800104213133842e-07,-4.485743995443152e-05
1.800107021889736e-07,0.7,1.800107021889736e-07,0.7,1.800107021889736e-07,-5.972684525134148e-05
1.800111107599568e-07,0.7,1.800111107599568e-07,0.7,1.800111107599568e-07,-7.693935585818621e-05
1.800119279019232e-07,0.7,1.800119279019232e-07,0.7,1.800119279019232e-07,-9.934425622564644e-05
1.800123364729064e-07,0.7,1.800123364729064e-07,0.7,1.800123364729064e-07,-0.0001007941326773146
1.800131536148728e-07,0.7,1.800131536148728e-07,0.7,1.800131536148728e-07,-0.0001043173794113711
1.800147878988055e-07,0.7,1.800147878988055e-07,0.7,1.800147878988055e-07,-9.590569326953318e-05
1.80017608227503e-07,0.7,1.80017608227503e-07,0.7,1.80017608227503e-07,-6.566484534228285e-05
1.800211761149249e-07,0.7,1.800211761149249e-07,0.7,1.800211761149249e-07,-3.842542659147171e-05
1.800261006458072e-07,0.7,1.800261006458072e-07,0.7,1.800261006458072e-07,-2.289601787898347e-05
1.800297790657325e-07,0.7,1.800297790657325e-07,0.7,1.800297790657325e-07,-7.837144579378409e-06
1.800329224073929e-07,0.7,1.800329224073929e-07,0.7,1.800329224073929e-07,7.882243499056556e-06
1.800361780724185e-07,0.7,1.800361780724185e-07,0.7,1.800361780724185e-07,1.650678562518157e-05
1.800410114393451e-07,0.7,1.800410114393451e-07,0.7,1.800410114393451e-07,1.609588696994031e-05
1.800500456584469e-07,0.7,1.800500456584469e-07,0.7,1.800500456584469e-07,1.926315426863309e-06
1.800622852759317e-07,0.7,1.800622852759317e-07,0.7,1.800622852759317e-07,-1.460548393162283e-05
1.800781959319085e-07,0.7,1.800781959319085e-07,0.7,1.800781959319085e-07,-2.622866321859095e-05
1.800957831713966e-07,0.7,1.800957831713966e-07,0.7,1.800957831713966e-07,-1.265289721462319e-05
1.801097210727734e-07,0.7,1.801097210727734e-07,0.7,1.801097210727734e-07,4.722655490569502e-05
1.801202108226612e-07,0.7,1.801202108226612e-07,0.7,1.801202108226612e-07,0.0001757093872587642
1.801322987993371e-07,0.7,1.801322987993371e-07,0.7,1.801322987993371e-07,0.0005177777353008216
1.801413046202477e-07,0.7,1.801413046202477e-07,0.7,1.801413046202477e-07,0.00106347646002991
1.801505082990568e-07,0.7,1.801505082990568e-07,0.7,1.801505082990568e-07,0.002094522285493657
1.801578260052087e-07,0.7,1.801578260052087e-07,0.7,1.801578260052087e-07,0.002526603542581124
1.801665396922043e-07,0.7,1.801665396922043e-07,0.7,1.801665396922043e-07,0.001594563195373578
1.801728459526437e-07,0.7,1.801728459526437e-07,0.7,1.801728459526437e-07,-0.000991820844920506
1.801793639527697e-07,0.7,1.801793639527697e-07,0.7,1.801793639527697e-07,-0.007109770289070545
1.801849986576111e-07,0.7,1.801849986576111e-07,0.7,1.801849986576111e-07,-0.01565335750081672
1.801906777599882e-07,0.7,1.801906777599882e-07,0.7,1.801906777599882e-07,-0.02900055248883314
1.801965681909573e-07,0.7,1.801965681909573e-07,0.7,1.801965681909573e-07,-0.04993908658431601
1.802025491013096e-07,0.7,1.802025491013096e-07,0.7,1.802025491013096e-07,-0.07566398249352632
1.802091467307133e-07,0.7,1.802091467307133e-07,0.7,1.802091467307133e-07,-0.09927233801908508
1.802157697632164e-07,0.7,1.802157697632164e-07,0.7,1.802157697632164e-07,-0.09682711188718693
1.802210919883006e-07,0.7,1.802210919883006e-07,0.7,1.802210919883006e-07,-0.05479141227168016
1.802258220652631e-07,0.7,1.802258220652631e-07,0.7,1.802258220652631e-07,0.02317266825072069
1.802310283893751e-07,0.7,1.802310283893751e-07,0.7,1.802310283893751e-07,0.1463668161821612
1.802370635552134e-07,0.7,1.802370635552134e-07,0.7,1.802370635552134e-07,0.3135814513491528
1.802414315484543e-07,0.7,1.802414315484543e-07,0.7,1.802414315484543e-07,0.4361155913239446
1.802459213141142e-07,0.7,1.802459213141142e-07,0.7,1.802459213141142e-07,0.5510821548144318
1.802504210861162e-07,0.7,1.802504210861162e-07,0.7,1.802504210861162e-07,0.6366444792858154
1.802542315225503e-07,0.7,1.802542315225503e-07,0.7,1.802542315225503e-07,0.6726342782194383
1.802581007566539e-07,0.7,1.802581007566539e-07,0.7,1.802581007566539e-07,0.6870192510422418
1.802619451832744e-07,0.7,1.802619451832744e-07,0.7,1.802619451832744e-07,0.693195201253083
1.802655338065223e-07,0.7,1.802655338065223e-07,0.7,1.802655338065223e-07,0.6961219446920074
1.802705720056424e-07,0.7,1.802705720056424e-07,0.7,1.802705720056424e-07,0.6981350624697923
1.802764828300606e-07,0.7,1.802764828300606e-07,0.7,1.802764828300606e-07,0.6991362835617579
1.802812536897691e-07,0.7,1.802812536897691e-07,0.7,1.802812536897691e-07,0.6995044049585665
1.802888302511342e-07,0.7,1.802888302511342e-07,0.7,1.802888302511342e-07,0.6997964277459149
1.802962732505003e-07,0.7,1.802962732505003e-07,0.7,1.802962732505003e-07,0.6999107153551929
1.803047473969084e-07,0.7,1.803047473969084e-07,0.7,1.803047473969084e-07,0.6999651411567746
1.803156417140327e-07,0.7,1.803156417140327e-07,0.7,1.803156417140327e-07,0.6999906538371112
1.80329722406623e-07,0.7,1.80329722406623e-07,0.7,1.80329722406623e-07,0.6999989970552991
1.803488212003475e-07,0.7,1.803488212003475e-07,0.7,1.803488212003475e-07,0.7000005764322865
1.803769807278772e-07,0.7,1.803769807278772e-07,0.7,1.803769807278772e-07,0.7000005897732754
1.804207336575809e-07,0.7,1.804207336575809e-07,0.7,1.804207336575809e-07,0.7000005939336602
1.804653668287905e-07,0.7,1.804653668287905e-07,0.7,1.804653668287905e-07,0.7000005908881967
1.8051e-07,0.7,1.8051e-07,0.7,1.8051e-07,0.7000005956535243
1.80510009765625e-07,0.6993164062474551,1.80510009765625e-07,0.7,1.80510009765625e-07,0.7000004742216888
1.805100292968751e-07,0.6979492187455065,1.805100292968751e-07,0.7,1.805100292968751e-07,0.6999999875642071
1.805100683593751e-07,0.6952148437416095,1.805100683593751e-07,0.7,1.805100683593751e-07,0.6999983300869703
1.80510139398758e-07,0.6902420869370635,1.80510139398758e-07,0.7,1.80510139398758e-07,0.6999952162149641
1.805102313425755e-07,0.6838060197149404,1.805102313425755e-07,0.7,1.805102313425755e-07,0.6999914152005247
1.805104152302104e-07,0.6709338852706942,1.805104152302104e-07,0.7,1.805104152302104e-07,0.6999843555161408
1.805107830054803e-07,0.645189616382202,1.805107830054803e-07,0.7,1.805107830054803e-07,0.69997223804146
1.805115185560199e-07,0.5937010786052173,1.805115185560199e-07,0.7,1.805115185560199e-07,0.6999505405726123
1.805128578250928e-07,0.4999522435008367,1.805128578250928e-07,0.7,1.805128578250928e-07,0.6999335031566039
1.805151709465256e-07,0.3380337432094634,1.805151709465256e-07,0.7,1.805151709465256e-07,0.6999414406850727
1.805175854732628e-07,0.1690168716035495,1.805175854732628e-07,0.7,1.805175854732628e-07,0.6999787743917724
1.805187927366314e-07,0.08450843580151901,1.805187927366314e-07,0.7,1.805187927366314e-07,0.7000056719039623
1.8052e-07,0,1.8052e-07,0.7,1.8052e-07,0.7000463778085604
1.805200854338098e-07,0,1.805200854338098e-07,0.7,1.805200854338098e-07,0.7000541020506216
1.805201281507147e-07,0,1.805201281507147e-07,0.7,1.805201281507147e-07,0.700057003394316
1.805202135845244e-07,0,1.805202135845244e-07,0.7,1.805202135845244e-07,0.7000626209013507
1.80520384452144e-07,0,1.80520384452144e-07,0.7,1.80520384452144e-07,0.7000732101347936
1.805206054982339e-07,0,1.805206054982339e-07,0.7,1.805206054982339e-07,0.7000849622189083
1.805210475904138e-07,0,1.805210475904138e-07,0.7,1.805210475904138e-07,0.7001035925301552
1.805219317747735e-07,0,1.805219317747735e-07,0.7,1.805219317747735e-07,0.7001243444978874
