/CLK (x=0.7) X,/CLK (x=0.7) Y,/D (x=0.7) X,/D (x=0.7) Y,/QB (x=0.7) X,/QB (x=0.7) Y
0,0,0,0,0,0.6999999434631151
1e-10,0,1e-10,0,1e-10,0.6999999434631151
1.00009765625e-10,0,1.00009765625e-10,0.0006835937499998704,1.00009765625e-10,0.7000011431256841
1.00029296875e-10,0,1.00029296875e-10,0.002050781249999611,1.00029296875e-10,0.7000059425864666
1.00068359375e-10,0,1.00068359375e-10,0.004785156249999093,1.00068359375e-10,0.7000229184331429
1.000851647318186e-10,0,1.000851647318186e-10,0.005961531227304796,1.000851647318186e-10,0.7000325777361008
1.001187754454559e-10,0,1.001187754454559e-10,0.008314281181916201,1.001187754454559e-10,0.7000501568161985
1.001859968727306e-10,0,1.001859968727306e-10,0.01301978109113901,1.001859968727306e-10,0.700082510532661
1.00287264827586e-10,0,1.00287264827586e-10,0.02010853793102086,1.00287264827586e-10,0.7001317028295045
1.004898007372969e-10,0,1.004898007372969e-10,0.03428605161078455,1.004898007372969e-10,0.7002221432440673
1.00867185733649e-10,0,1.00867185733649e-10,0.06070300135542839,1.00867185733649e-10,0.7004519120069012
1.016219557263531e-10,0,1.016219557263531e-10,0.1135369008447161,1.016219557263531e-10,0.7007064159725807
1.029155455110462e-10,0,1.029155455110462e-10,0.2040881857732331,1.029155455110462e-10,0.7008884316275209
1.05494051556668e-10,0,1.05494051556668e-10,0.3845836089667627,1.05494051556668e-10,0.7006960591065367
1.07747025778334e-10,0,1.07747025778334e-10,0.542291804483381,1.07747025778334e-10,0.7004021060021376
1.1e-10,0,1.1e-10,0.7,1.1e-10,0.7001580108067087
1.10158509069117e-10,0,1.10158509069117e-10,0.7,1.10158509069117e-10,0.7000842423308785
1.10475527207351e-10,0,1.10475527207351e-10,0.7,1.10475527207351e-10,0.6999377009539867
1.106172952221292e-10,0,1.106172952221292e-10,0.7,1.106172952221292e-10,0.6998795685053654
1.109008312516854e-10,0,1.109008312516854e-10,0.7,1.109008312516854e-10,0.6997769289253566
1.11467903310798e-10,0,1.11467903310798e-10,0.7,1.11467903310798e-10,0.699611033499137
1.124279279510332e-10,0,1.124279279510332e-10,0.7,1.124279279510332e-10,0.6995248539656718
1.143479772315038e-10,0,1.143479772315038e-10,0.7,1.143479772315038e-10,0.6992957112380968
1.172028884783414e-10,0,1.172028884783414e-10,0.7,1.172028884783414e-10,0.6994922081128456
1.207151408781179e-10,0,1.207151408781179e-10,0.7,1.207151408781179e-10,0.6996440168794528
1.25084677273211e-10,0,1.25084677273211e-10,0.7,1.25084677273211e-10,0.699837484903915
1.302330386237439e-10,0,1.302330386237439e-10,0.7,1.302330386237439e-10,0.699959320420885
1.373715922792062e-10,0,1.373715922792062e-10,0.7,1.373715922792062e-10,0.7000083312315667
1.47864070313747e-10,0,1.47864070313747e-10,0.7,1.47864070313747e-10,0.7000318351877948
1.625269029585705e-10,0,1.625269029585705e-10,0.7,1.625269029585705e-10,0.7000409784353081
1.788141990145027e-10,0,1.788141990145027e-10,0.7,1.788141990145027e-10,0.7000716990443729
1.92189399294489e-10,0,1.92189399294489e-10,0.7,1.92189399294489e-10,0.7000964733192102
2.046794646651584e-10,0,2.046794646651584e-10,0.7,2.046794646651584e-10,0.7000714510313477
2.122686156798491e-10,0,2.122686156798491e-10,0.7,2.122686156798491e-10,0.7000448958315915
2.222758656965881e-10,0,2.222758656965881e-10,0.7,2.222758656965881e-10,0.7000255100199576
2.301646423619567e-10,0,2.301646423619567e-10,0.7,2.301646423619567e-10,0.7000402568800141
2.419032823251234e-10,0,2.419032823251234e-10,0.7,2.419032823251234e-10,0.700053498429821
2.523970700206423e-10,0,2.523970700206423e-10,0.7,2.523970700206423e-10,0.7000111451134826
2.63076317537501e-10,0,2.63076317537501e-10,0.7,2.63076317537501e-10,0.6998692689527442
2.728348477960726e-10,0,2.728348477960726e-10,0.7,2.728348477960726e-10,0.6997164445201149
2.820688968473937e-10,0,2.820688968473937e-10,0.7,2.820688968473937e-10,0.6996010076926343
2.902608402896046e-10,0,2.902608402896046e-10,0.7,2.902608402896046e-10,0.6996286297618241
2.993931435967435e-10,0,2.993931435967435e-10,0.7,2.993931435967435e-10,0.6997110912009138
3.09662064439979e-10,0,3.09662064439979e-10,0.7,3.09662064439979e-10,0.699823164565138
3.23795761961319e-10,0,3.23795761961319e-10,0.7,3.23795761961319e-10,0.6999712674021235
3.425156461371188e-10,0,3.425156461371188e-10,0.7,3.425156461371188e-10,0.7001330562498886
3.666385930136817e-10,0,3.666385930136817e-10,0.7,3.666385930136817e-10,0.7001279998864028
3.904355910290608e-10,0,3.904355910290608e-10,0.7,3.904355910290608e-10,0.7000783264446646
4.108281294911001e-10,0,4.108281294911001e-10,0.7,4.108281294911001e-10,0.7000995971267953
4.266147629172202e-10,0,4.266147629172202e-10,0.7,4.266147629172202e-10,0.7001223528388594
4.41523516267648e-10,0,4.41523516267648e-10,0.7,4.41523516267648e-10,0.7001230076877466
4.531467641550329e-10,0,4.531467641550329e-10,0.7,4.531467641550329e-10,0.7000740776351787
4.630268199875314e-10,0,4.630268199875314e-10,0.7,4.630268199875314e-10,0.7000473540240625
4.729181937828306e-10,0,4.729181937828306e-10,0.7,4.729181937828306e-10,0.7000566726597921
4.838170706811204e-10,0,4.838170706811204e-10,0.7,4.838170706811204e-10,0.7001056270810644
4.941772837380681e-10,0,4.941772837380681e-10,0.7,4.941772837380681e-10,0.70011142052038
5.05436324452886e-10,0,5.05436324452886e-10,0.7,5.05436324452886e-10,0.7000483663711312
5.139632285879884e-10,0,5.139632285879884e-10,0.7,5.139632285879884e-10,0.7000104655563878
5.232484826106021e-10,0,5.232484826106021e-10,0.7,5.232484826106021e-10,0.6999818427875689
5.343782456279392e-10,0,5.343782456279392e-10,0.7,5.343782456279392e-10,0.6999601048916093
5.470304989647425e-10,0,5.470304989647425e-10,0.7,5.470304989647425e-10,0.6999463499195041
5.656241020755322e-10,0,5.656241020755322e-10,0.7,5.656241020755322e-10,0.6999522062821756
5.892663117278836e-10,0,5.892663117278836e-10,0.7,5.892663117278836e-10,0.6999606792174962
6.195585591006618e-10,0,6.195585591006618e-10,0.7,6.195585591006618e-10,0.6999794504041881
6.578402249649898e-10,0,6.578402249649898e-10,0.7,6.578402249649898e-10,0.6999883527608471
7.077652738742791e-10,0,7.077652738742791e-10,0.7,7.077652738742791e-10,0.6999956386096218
7.724880162837512e-10,0,7.724880162837512e-10,0.7,7.724880162837512e-10,0.6999969128867569
8.570062464423989e-10,0,8.570062464423989e-10,0.7,8.570062464423989e-10,0.6999994176481412
9.673913395632266e-10,0,9.673913395632266e-10,0.7,9.673913395632266e-10,0.6999988432973422
1.11321022000865e-09,0,1.11321022000865e-09,0.7,1.11321022000865e-09,0.7000003289229068
1.305883285845211e-09,0,1.305883285845211e-09,0.7,1.305883285845211e-09,0.6999993773185932
1.562212412555583e-09,0,1.562212412555583e-09,0.7,1.562212412555583e-09,0.7000005817871655
1.902704956426805e-09,0,1.902704956426805e-09,0.7,1.902704956426805e-09,0.6999995405630867
2.358022476657422e-09,0,2.358022476657422e-09,0.7,2.358022476657422e-09,0.7000006541825057
2.966011730977949e-09,0,2.966011730977949e-09,0.7,2.966011730977949e-09,0.6999995938306034
3.783027020425272e-09,0,3.783027020425272e-09,0.7,3.783027020425272e-09,0.7000006748551773
4.87863436112013e-09,0,4.87863436112013e-09,0.7,4.87863436112013e-09,0.6999996124480434
6.356564175390947e-09,0,6.356564175390947e-09,0.7,6.356564175390947e-09,0.7000006805551449
8.344976816398413e-09,0,8.344976816398413e-09,0.7,8.344976816398413e-09,0.6999996194765392
1.103543526071078e-08,0,1.103543526071078e-08,0.7,1.103543526071078e-08,0.7000006819640888
1.466440857489136e-08,0,1.466440857489136e-08,0.7,1.466440857489136e-08,0.6999996223248078
1.866440857489136e-08,0,1.866440857489136e-08,0.7,1.866440857489136e-08,0.7000006820214231
2.266440857489136e-08,0,2.266440857489136e-08,0.7,2.266440857489136e-08,0.6999996236600514
2.666440857489136e-08,0,2.666440857489136e-08,0.7,2.666440857489136e-08,0.7000006814198014
3.066440857489136e-08,0,3.066440857489136e-08,0.7,3.066440857489136e-08,0.6999996246399429
3.466440857489136e-08,0,3.466440857489136e-08,0.7,3.466440857489136e-08,0.7000006806476047
3.866440857489137e-08,0,3.866440857489137e-08,0.7,3.866440857489137e-08,0.6999996255130653
4.266440857489137e-08,0,4.266440857489137e-08,0.7,4.266440857489137e-08,0.7000006798251458
4.666440857489137e-08,0,4.666440857489137e-08,0.7,4.666440857489137e-08,0.699999626345115
5.066440857489137e-08,0,5.066440857489137e-08,0.7,5.066440857489137e-08,0.700000678989838
5.466440857489138e-08,0,5.466440857489138e-08,0.7,5.466440857489138e-08,0.6999996271590415
5.866440857489138e-08,0,5.866440857489138e-08,0.7,5.866440857489138e-08,0.7000006781554734
6.266440857489138e-08,0,6.266440857489138e-08,0.7,6.266440857489138e-08,0.6999996279649673
6.666440857489138e-08,0,6.666440857489138e-08,0.7,6.666440857489138e-08,0.7000006773276887
7.066440857489137e-08,0,7.066440857489137e-08,0.7,7.066440857489137e-08,0.699999628764407
7.466440857489137e-08,0,7.466440857489137e-08,0.7,7.466440857489137e-08,0.7000006765092557
7.866440857489137e-08,0,7.866440857489137e-08,0.7,7.866440857489137e-08,0.6999996295585602
8.266440857489136e-08,0,8.266440857489136e-08,0.7,8.266440857489136e-08,0.700000675700971
8.666440857489136e-08,0,8.666440857489136e-08,0.7,8.666440857489136e-08,0.6999996303478208
9.066440857489135e-08,0,9.066440857489135e-08,0.7,9.066440857489135e-08,0.7000006749006833
9.466440857489135e-08,0,9.466440857489135e-08,0.7,9.466440857489135e-08,0.6999996311328667
9.866440857489135e-08,0,9.866440857489135e-08,0.7,9.866440857489135e-08,0.7000006741088248
1.026644085748913e-07,0,1.026644085748913e-07,0.7,1.026644085748913e-07,0.6999996319128305
1.066644085748913e-07,0,1.066644085748913e-07,0.7,1.066644085748913e-07,0.7000006733248919
1.106644085748913e-07,0,1.106644085748913e-07,0.7,1.106644085748913e-07,0.6999996326873726
1.146644085748913e-07,0,1.146644085748913e-07,0.7,1.146644085748913e-07,0.7000006725484647
1.186644085748913e-07,0,1.186644085748913e-07,0.7,1.186644085748913e-07,0.6999996334562399
1.226644085748913e-07,0,1.226644085748913e-07,0.7,1.226644085748913e-07,0.7000006717792078
1.266644085748913e-07,0,1.266644085748913e-07,0.7,1.266644085748913e-07,0.6999996342192557
1.306644085748914e-07,0,1.306644085748914e-07,0.7,1.306644085748914e-07,0.7000006710168591
1.346644085748914e-07,0,1.346644085748914e-07,0.7,1.346644085748914e-07,0.6999996349763062
1.386644085748914e-07,0,1.386644085748914e-07,0.7,1.386644085748914e-07,0.7000006702612119
1.426644085748914e-07,0,1.426644085748914e-07,0.7,1.426644085748914e-07,0.6999996357282484
1.466644085748914e-07,0,1.466644085748914e-07,0.7,1.466644085748914e-07,0.7000006695107454
1.506644085748914e-07,0,1.506644085748914e-07,0.7,1.506644085748914e-07,0.699999636472863
1.546644085748914e-07,0,1.546644085748914e-07,0.7,1.546644085748914e-07,0.7000006687681979
1.586644085748914e-07,0,1.586644085748914e-07,0.7,1.586644085748914e-07,0.6999996372114619
1.626644085748914e-07,0,1.626644085748914e-07,0.7,1.626644085748914e-07,0.7000006680319486
1.666644085748914e-07,0,1.666644085748914e-07,0.7,1.666644085748914e-07,0.6999996379440483
1.706644085748914e-07,0,1.706644085748914e-07,0.7,1.706644085748914e-07,0.7000006673019025
1.746644085748915e-07,0,1.746644085748915e-07,0.7,1.746644085748915e-07,0.6999996386706403
1.773322042874457e-07,0,1.773322042874457e-07,0.7,1.773322042874457e-07,0.7000006663982233
1.8e-07,0,1.8e-07,0.7,1.8e-07,0.6999996397489943
1.800000390625e-07,0.002734375000191284,1.800000390625e-07,0.7,1.800000390625e-07,0.7000556930097542
1.800001171875e-07,0.008203125000573852,1.800001171875e-07,0.7,1.800001171875e-07,0.7001986722679463
1.800002734375e-07,0.01914062500133899,1.800002734375e-07,0.7,1.800002734375e-07,0.7006455308247324
1.800003179292369e-07,0.02225504658469156,1.800003179292369e-07,0.7,1.800003179292369e-07,0.7007488216331732
1.800004069127107e-07,0.0284838897513967,1.800004069127107e-07,0.7,1.800004069127107e-07,0.7009564974601316
1.800005848796584e-07,0.040941576084807,1.800005848796584e-07,0.7,1.800005848796584e-07,0.701350266009224
1.800009205356832e-07,0.06443749782764366,1.800009205356832e-07,0.7,1.800009205356832e-07,0.7020234172476312
1.80001591847733e-07,0.111429341313317,1.80001591847733e-07,0.7,1.80001591847733e-07,0.703156870806489
1.800029344718326e-07,0.2054130282846636,1.800029344718326e-07,0.7,1.800029344718326e-07,0.7047658728235173
1.800056197200318e-07,0.3933804022273569,1.800056197200318e-07,0.7,1.800056197200318e-07,0.7056488567854494
1.800078098600159e-07,0.5466902011150018,1.800078098600159e-07,0.7,1.800078098600159e-07,0.7048404346471996
1.8001e-07,0.7,1.8001e-07,0.7,1.8001e-07,0.7018677769578786
1.80010098908856e-07,0.7,1.80010098908856e-07,0.7,1.80010098908856e-07,0.7014959024045481
1.80010296726568e-07,0.7,1.80010296726568e-07,0.7,1.80010296726568e-07,0.7007365762490146
1.80010395635424e-07,0.7,1.80010395635424e-07,0.7,1.80010395635424e-07,0.7003706708307466
1.800105934531359e-07,0.7,1.800105934531359e-07,0.7,1.800105934531359e-07,0.6997433319285998
1.800109890885599e-07,0.7,1.800109890885599e-07,0.7,1.800109890885599e-07,0.6987206452998289
1.80011136753638e-07,0.7,1.80011136753638e-07,0.7,1.80011136753638e-07,0.698376225805279
1.800114320837943e-07,0.7,1.800114320837943e-07,0.7,1.800114320837943e-07,0.6977392219206743
1.800120227441069e-07,0.7,1.800120227441069e-07,0.7,1.800120227441069e-07,0.696675454477223
1.800131656730873e-07,0.7,1.800131656730873e-07,0.7,1.800131656730873e-07,0.6953013258588009
1.800137371375776e-07,0.7,1.800137371375776e-07,0.7,1.800137371375776e-07,0.6949070453147153
1.80014880066558e-07,0.7,1.80014880066558e-07,0.7,1.80014880066558e-07,0.6944961964756283
1.800171659245189e-07,0.7,1.800171659245189e-07,0.7,1.800171659245189e-07,0.6947200956084947
1.800193631366454e-07,0.7,1.800193631366454e-07,0.7,1.800193631366454e-07,0.6956129835279666
1.800217658225578e-07,0.7,1.800217658225578e-07,0.7,1.800217658225578e-07,0.696725846092458
1.800246547386379e-07,0.7,1.800246547386379e-07,0.7,1.800246547386379e-07,0.6978847988550164
1.800284350290597e-07,0.7,1.800284350290597e-07,0.7,1.800284350290597e-07,0.6989189858364383
1.800334037260146e-07,0.7,1.800334037260146e-07,0.7,1.800334037260146e-07,0.6995859856890156
1.800380125176134e-07,0.7,1.800380125176134e-07,0.7,1.800380125176134e-07,0.6997928727952715
1.800427665841725e-07,0.7,1.800427665841725e-07,0.7,1.800427665841725e-07,0.6998578963092599
1.800472483701347e-07,0.7,1.800472483701347e-07,0.7,1.800472483701347e-07,0.6998866651812884
1.800528160592858e-07,0.7,1.800528160592858e-07,0.7,1.800528160592858e-07,0.6999243058227198
1.800608811944378e-07,0.7,1.800608811944378e-07,0.7,1.800608811944378e-07,0.6999915490857085
1.8007375639346e-07,0.7,1.8007375639346e-07,0.7,1.8007375639346e-07,0.7000681182241637
1.800888133243712e-07,0.7,1.800888133243712e-07,0.7,1.800888133243712e-07,0.7001371129820625
1.801043479861487e-07,0.7,1.801043479861487e-07,0.7,1.801043479861487e-07,0.7007476120130525
1.801174037476805e-07,0.7,1.801174037476805e-07,0.7,1.801174037476805e-07,0.7024536450938943
1.801296983900937e-07,0.7,1.801296983900937e-07,0.7,1.801296983900937e-07,0.704818561753497
1.801433844481327e-07,0.7,1.801433844481327e-07,0.7,1.801433844481327e-07,0.7083751036249317
1.801580859202389e-07,0.7,1.801580859202389e-07,0.7,1.801580859202389e-07,0.7140145245339625
1.801707263716382e-07,0.7,1.801707263716382e-07,0.7,1.801707263716382e-07,0.7216321821547571
1.80186681195311e-07,0.7,1.80186681195311e-07,0.7,1.80186681195311e-07,0.7342582464660654
1.802078659917059e-07,0.7,1.802078659917059e-07,0.7,1.802078659917059e-07,0.7498320306012564
1.80228655073977e-07,0.7,1.80228655073977e-07,0.7,1.80228655073977e-07,0.7470530115910939
1.802465726022631e-07,0.7,1.802465726022631e-07,0.7,1.802465726022631e-07,0.7060492647551141
1.802614041835994e-07,0.7,1.802614041835994e-07,0.7,1.802614041835994e-07,0.622995197797335
1.802744970793449e-07,0.7,1.802744970793449e-07,0.7,1.802744970793449e-07,0.4988410162781193
1.802877015226011e-07,0.7,1.802877015226011e-07,0.7,1.802877015226011e-07,0.328837179284495
1.802956893121474e-07,0.7,1.802956893121474e-07,0.7,1.802956893121474e-07,0.215402592858368
1.803056339632228e-07,0.7,1.803056339632228e-07,0.7,1.803056339632228e-07,0.08840802006482169
1.803131027518168e-07,0.7,1.803131027518168e-07,0.7,1.803131027518168e-07,0.03081389853620386
1.803192264974782e-07,0.7,1.803192264974782e-07,0.7,1.803192264974782e-07,0.01206655834157448
1.803248311785616e-07,0.7,1.803248311785616e-07,0.7,1.803248311785616e-07,0.005345923507750471
1.803306744463375e-07,0.7,1.803306744463375e-07,0.7,1.803306744463375e-07,0.002441641347738869
1.803376777193013e-07,0.7,1.803376777193013e-07,0.7,1.803376777193013e-07,0.001125519857932236
1.803474846970427e-07,0.7,1.803474846970427e-07,0.7,1.803474846970427e-07,0.00056877783382288
1.80359937207216e-07,0.7,1.80359937207216e-07,0.7,1.80359937207216e-07,0.0005041493539288463
1.803691390418192e-07,0.7,1.803691390418192e-07,0.7,1.803691390418192e-07,0.0006129175293774583
1.803819400386923e-07,0.7,1.803819400386923e-07,0.7,1.803819400386923e-07,0.000551875897714779
1.803925759257785e-07,0.7,1.803925759257785e-07,0.7,1.803925759257785e-07,0.000388189264794386
1.80404650081927e-07,0.7,1.80404650081927e-07,0.7,1.80404650081927e-07,0.0002522408050476909
1.80418009549204e-07,0.7,1.80418009549204e-07,0.7,1.80418009549204e-07,0.0001615047056519065
1.804343715940363e-07,0.7,1.804343715940363e-07,0.7,1.804343715940363e-07,9.545156332119671e-05
1.80455780494371e-07,0.7,1.80455780494371e-07,0.7,1.80455780494371e-07,4.567567915949612e-05
1.804862647742497e-07,0.7,1.804862647742497e-07,0.7,1.804862647742497e-07,1.540494813974283e-05
1.8051e-07,0.7,1.8051e-07,0.7,1.8051e-07,5.662909287902667e-06
1.805100390625e-07,0.6972656249982381,1.805100390625e-07,0.7,1.805100390625e-07,-4.936994305835148e-05
1.805101171875e-07,0.6917968749978555,1.805101171875e-07,0.7,1.805101171875e-07,-0.0001827103408656899
1.8051015625e-07,0.6890624999976642,1.8051015625e-07,0.7,1.8051015625e-07,-0.0002966459693999454
1.80510234375e-07,0.6835937499972816,1.80510234375e-07,0.7,1.80510234375e-07,-0.0004498362263586496
1.805103885088984e-07,0.6728043771137759,1.805103885088984e-07,0.7,1.805103885088984e-07,-0.0007457860463916507
1.805106281060691e-07,0.6560325751637246,1.805106281060691e-07,0.7,1.805106281060691e-07,-0.001172597958248288
1.805111073004105e-07,0.622488971263622,1.805111073004105e-07,0.7,1.805111073004105e-07,-0.001936572543972866
1.805120656890934e-07,0.5554017634634169,1.805120656890934e-07,0.7,1.805120656890934e-07,-0.003179189064881836
1.805139824664591e-07,0.4212273478630065,1.805139824664591e-07,0.7,1.805139824664591e-07,-0.004782553874484357
1.805169912332296e-07,0.210613673930321,1.805169912332296e-07,0.7,1.805169912332296e-07,-0.005272791465940159
1.805186851495769e-07,0.09203952961783124,1.805186851495769e-07,0.7,1.805186851495769e-07,-0.004507932040631754
1.8052e-07,0,1.8052e-07,0.7,1.8052e-07,-0.002921193131517803
1.805200895912186e-07,0,1.805200895912186e-07,0.7,1.805200895912186e-07,-0.002622753115822237
1.805202687736558e-07,0,1.805202687736558e-07,0.7,1.805202687736558e-07,-0.001998354472262015
1.805203583648743e-07,0,1.805203583648743e-07,0.7,1.805203583648743e-07,-0.001691307534727716
1.805205375473115e-07,0,1.805205375473115e-07,0.7,1.805205375473115e-07,-0.001122335868835057
1.805208392576049e-07,0,1.805208392576049e-07,0.7,1.805208392576049e-07,-0.0002466738437586402
1.805209474562127e-07,0,1.805209474562127e-07,0.7,1.805209474562127e-07,3.47263245670728e-05
1.805211638534285e-07,0,1.805211638534285e-07,0.7,1.805211638534285e-07,0.0005074870058185997
1.805215966478601e-07,0,1.805215966478601e-07,0.7,1.805215966478601e-07,0.001336916233641198
1.805224622367231e-07,0,1.805224622367231e-07,0.7,1.805224622367231e-07,0.002596975397809588
1.805241934144493e-07,0,1.805241934144493e-07,0.7,1.805241934144493e-07,0.00391842032229739
1.805268004866324e-07,0,1.805268004866324e-07,0.7,1.805268004866324e-07,0.004072514449807907
1.805299259590138e-07,0,1.805299259590138e-07,0.7,1.805299259590138e-07,0.002920105126694288
1.805337317749274e-07,0,1.805337317749274e-07,0.7,1.805337317749274e-07,0.001261596991995404
