/CLK (x=0.6) X,/CLK (x=0.6) Y,/D (x=0.6) X,/D (x=0.6) Y,/QB (x=0.6) X,/QB (x=0.6) Y
0,0,0,0,0,0.5999998984212214
1e-10,0,1e-10,0,1e-10,0.5999998984212214
1.00009765625e-10,0,1.00009765625e-10,0.000585937499999889,1.00009765625e-10,0.600001006003143
1.00029296875e-10,0,1.00029296875e-10,0.001757812499999667,1.00029296875e-10,0.6000052756339513
1.00068359375e-10,0,1.00068359375e-10,0.004101562499999222,1.00068359375e-10,0.6000195470223353
1.000852853705237e-10,0,1.000852853705237e-10,0.005117122231421933,1.000852853705237e-10,0.6000268115914335
1.001191373615711e-10,0,1.001191373615711e-10,0.007148241694267353,1.001191373615711e-10,0.6000403402756769
1.00186841343666e-10,0,1.00186841343666e-10,0.01121048061995819,1.00186841343666e-10,0.6000667476541407
1.003020108495065e-10,0,1.003020108495065e-10,0.01812065097039079,1.003020108495065e-10,0.6001132235661429
1.005323498611876e-10,0,1.005323498611876e-10,0.03194099167125598,1.005323498611876e-10,0.6002001913659226
1.008557758132448e-10,0,1.008557758132448e-10,0.05134654879468558,1.008557758132448e-10,0.6003716487164235
1.015026277173591e-10,0,1.015026277173591e-10,0.09015766304154477,1.015026277173591e-10,0.6006039871784024
1.027446697536628e-10,0,1.027446697536628e-10,0.1646801852197679,1.027446697536628e-10,0.6009209175615573
1.051849183751296e-10,0,1.051849183751296e-10,0.3110951025077774,1.051849183751296e-10,0.6011830548993523
1.075924591875648e-10,0,1.075924591875648e-10,0.4555475512538892,1.075924591875648e-10,0.6012046832977448
1.1e-10,0,1.1e-10,0.6,1.1e-10,0.6011034261926784
1.102356525997345e-10,0,1.102356525997345e-10,0.6,1.102356525997345e-10,0.6010051188771217
1.107069577992035e-10,0,1.107069577992035e-10,0.6,1.107069577992035e-10,0.6008093610628121
1.108592785302177e-10,0,1.108592785302177e-10,0.6,1.108592785302177e-10,0.6007499581497017
1.111639199922461e-10,0,1.111639199922461e-10,0.6,1.111639199922461e-10,0.600637616987785
1.117732029163029e-10,0,1.117732029163029e-10,0.6,1.117732029163029e-10,0.600433898614793
1.129096177604587e-10,0,1.129096177604587e-10,0.6,1.129096177604587e-10,0.600126395716699
1.151824474487702e-10,0,1.151824474487702e-10,0.6,1.151824474487702e-10,0.599753760135328
1.19074305901751e-10,0,1.19074305901751e-10,0.6,1.19074305901751e-10,0.5994779884921305
1.237429544313105e-10,0,1.237429544313105e-10,0.6,1.237429544313105e-10,0.5994373091567767
1.293941969184958e-10,0,1.293941969184958e-10,0.6,1.293941969184958e-10,0.5995398852555125
1.363529934907179e-10,0,1.363529934907179e-10,0.6,1.363529934907179e-10,0.5996955645253251
1.455556558020884e-10,0,1.455556558020884e-10,0.6,1.455556558020884e-10,0.5998516568586406
1.569992126337119e-10,0,1.569992126337119e-10,0.6,1.569992126337119e-10,0.5999537211854679
1.728967665483862e-10,0,1.728967665483862e-10,0.6,1.728967665483862e-10,0.6000059726113459
1.958454156564641e-10,0,1.958454156564641e-10,0.6,1.958454156564641e-10,0.6000212339163633
2.282694456851465e-10,0,2.282694456851465e-10,0.6,2.282694456851465e-10,0.6000206342247734
2.773962709328666e-10,0,2.773962709328666e-10,0.6,2.773962709328666e-10,0.6000203712072704
3.26656665322283e-10,0,3.26656665322283e-10,0.6,3.26656665322283e-10,0.6000350663659634
3.643336509192198e-10,0,3.643336509192198e-10,0.6,3.643336509192198e-10,0.6000413097207552
4.018465964517331e-10,0,4.018465964517331e-10,0.6,4.018465964517331e-10,0.6000226801185912
4.24862690554884e-10,0,4.24862690554884e-10,0.6,4.24862690554884e-10,0.6000174313660831
4.502019067109536e-10,0,4.502019067109536e-10,0.6,4.502019067109536e-10,0.6000168775649515
4.736248274506411e-10,0,4.736248274506411e-10,0.6,4.736248274506411e-10,0.6000226108540514
5.102212873954595e-10,0,5.102212873954595e-10,0.6,5.102212873954595e-10,0.5999997426898623
5.372810648155151e-10,0,5.372810648155151e-10,0.6,5.372810648155151e-10,0.5999327288286795
5.676892440085495e-10,0,5.676892440085495e-10,0.6,5.676892440085495e-10,0.5998213212928923
5.929175136295429e-10,0,5.929175136295429e-10,0.6,5.929175136295429e-10,0.5997778788836582
6.185566879692784e-10,0,6.185566879692784e-10,0.6,6.185566879692784e-10,0.5998255197098701
6.44445740716438e-10,0,6.44445740716438e-10,0.6,6.44445740716438e-10,0.5998984694457306
6.714702775218067e-10,0,6.714702775218067e-10,0.6,6.714702775218067e-10,0.5999677220279723
7.097917042579556e-10,0,7.097917042579556e-10,0.6,7.097917042579556e-10,0.6000385369089223
7.640250580537333e-10,0,7.640250580537333e-10,0.6,7.640250580537333e-10,0.6000729491352245
8.283529568046061e-10,0,8.283529568046061e-10,0.6,8.283529568046061e-10,0.6000376846251172
9.000396926861778e-10,0,9.000396926861778e-10,0.6,9.000396926861778e-10,0.6000310790493379
9.564026179382255e-10,0,9.564026179382255e-10,0.6,9.564026179382255e-10,0.6000433637603062
1.000741021261437e-09,0,1.000741021261437e-09,0.6,1.000741021261437e-09,0.600067050056433
1.039830710557049e-09,0,1.039830710557049e-09,0.6,1.039830710557049e-09,0.6000536923135217
1.06627428177326e-09,0,1.06627428177326e-09,0.6,1.06627428177326e-09,0.6000301993383836
1.098303307963941e-09,0,1.098303307963941e-09,0.6,1.098303307963941e-09,0.6000221415661793
1.126460118256013e-09,0,1.126460118256013e-09,0.6,1.126460118256013e-09,0.6000462038926827
1.16041029388732e-09,0,1.16041029388732e-09,0.6,1.16041029388732e-09,0.6000799959842633
1.189111156315816e-09,0,1.189111156315816e-09,0.6,1.189111156315816e-09,0.6000633063953522
1.219376332061498e-09,0,1.219376332061498e-09,0.6,1.219376332061498e-09,0.6000065156140555
1.241908941594155e-09,0,1.241908941594155e-09,0.6,1.241908941594155e-09,0.5999818959438143
1.269861825535868e-09,0,1.269861825535868e-09,0.6,1.269861825535868e-09,0.5999678115670825
1.300190439207977e-09,0,1.300190439207977e-09,0.6,1.300190439207977e-09,0.5999642274666395
1.337481121778843e-09,0,1.337481121778843e-09,0.6,1.337481121778843e-09,0.5999635222563126
1.392833541432342e-09,0,1.392833541432342e-09,0.6,1.392833541432342e-09,0.5999743375364953
1.461575553615848e-09,0,1.461575553615848e-09,0.6,1.461575553615848e-09,0.5999849478920694
1.550834770169297e-09,0,1.550834770169297e-09,0.6,1.550834770169297e-09,0.5999929563100244
1.664155698885553e-09,0,1.664155698885553e-09,0.6,1.664155698885553e-09,0.5999962100551676
1.812720150058671e-09,0,1.812720150058671e-09,0.6,1.812720150058671e-09,0.5999983404008025
2.00540612338744e-09,0,2.00540612338744e-09,0.6,2.00540612338744e-09,0.5999989511176245
2.258799032153674e-09,0,2.258799032153674e-09,0.6,2.258799032153674e-09,0.5999996438453917
2.592403841454121e-09,0,2.592403841454121e-09,0.6,2.592403841454121e-09,0.5999996587078801
3.033812420243143e-09,0,3.033812420243143e-09,0.6,3.033812420243143e-09,0.6000000183707395
3.618669070517917e-09,0,3.618669070517917e-09,0.6,3.618669070517917e-09,0.5999998629544476
4.397095547282862e-09,0,4.397095547282862e-09,0.6,4.397095547282862e-09,0.6000001395057368
5.429745929921573e-09,0,5.429745929921573e-09,0.6,5.429745929921573e-09,0.5999999281868315
6.810314703409829e-09,0,6.810314703409829e-09,0.6,6.810314703409829e-09,0.6000001803961557
8.647341920375738e-09,0,8.647341920375738e-09,0.6,8.647341920375738e-09,0.5999999502973299
1.111088262393783e-08,0,1.111088262393783e-08,0.6,1.111088262393783e-08,0.6000001953887659
1.439672711916916e-08,0,1.439672711916916e-08,0.6,1.439672711916916e-08,0.5999999584139049
1.839672711916916e-08,0,1.839672711916916e-08,0.6,1.839672711916916e-08,0.6000002011394949
2.239672711916916e-08,0,2.239672711916916e-08,0.6,2.239672711916916e-08,0.5999999610993102
2.639672711916916e-08,0,2.639672711916916e-08,0.6,2.639672711916916e-08,0.6000002032555012
3.039672711916916e-08,0,3.039672711916916e-08,0.6,3.039672711916916e-08,0.5999999619063183
3.439672711916916e-08,0,3.439672711916916e-08,0.6,3.439672711916916e-08,0.6000002043531181
3.839672711916916e-08,0,3.839672711916916e-08,0.6,3.839672711916916e-08,0.5999999621866545
4.239672711916917e-08,0,4.239672711916917e-08,0.6,4.239672711916917e-08,0.6000002050582371
4.639672711916917e-08,0,4.639672711916917e-08,0.6,4.639672711916917e-08,0.5999999622726256
5.039672711916917e-08,0,5.039672711916917e-08,0.6,5.039672711916917e-08,0.6000002055578683
5.439672711916917e-08,0,5.439672711916917e-08,0.6,5.439672711916917e-08,0.5999999622799524
5.839672711916918e-08,0,5.839672711916918e-08,0.6,5.839672711916918e-08,0.6000002059276806
6.239672711916917e-08,0,6.239672711916917e-08,0.6,6.239672711916917e-08,0.5999999622593705
6.639672711916917e-08,0,6.639672711916917e-08,0.6,6.639672711916917e-08,0.6000002062039667
7.039672711916917e-08,0,7.039672711916917e-08,0.6,7.039672711916917e-08,0.5999999622361887
7.439672711916916e-08,0,7.439672711916916e-08,0.6,7.439672711916916e-08,0.6000002064064597
7.839672711916916e-08,0,7.839672711916916e-08,0.6,7.839672711916916e-08,0.5999999622241562
8.239672711916915e-08,0,8.239672711916915e-08,0.6,8.239672711916915e-08,0.600000206546995
8.639672711916915e-08,0,8.639672711916915e-08,0.6,8.639672711916915e-08,0.5999999622311349
9.039672711916915e-08,0,9.039672711916915e-08,0.6,9.039672711916915e-08,0.6000002066333064
9.439672711916914e-08,0,9.439672711916914e-08,0.6,9.439672711916914e-08,0.5999999622617063
9.839672711916914e-08,0,9.839672711916914e-08,0.6,9.839672711916914e-08,0.6000002066708354
1.023967271191691e-07,0,1.023967271191691e-07,0.6,1.023967271191691e-07,0.5999999623185195
1.063967271191691e-07,0,1.063967271191691e-07,0.6,1.063967271191691e-07,0.6000002066630054
1.103967271191691e-07,0,1.103967271191691e-07,0.6,1.103967271191691e-07,0.5999999624047125
1.143967271191691e-07,0,1.143967271191691e-07,0.6,1.143967271191691e-07,0.6000002066132589
1.183967271191691e-07,0,1.183967271191691e-07,0.6,1.183967271191691e-07,0.5999999625179714
1.223967271191691e-07,0,1.223967271191691e-07,0.6,1.223967271191691e-07,0.6000002065257982
1.263967271191691e-07,0,1.263967271191691e-07,0.6,1.263967271191691e-07,0.5999999626588709
1.303967271191691e-07,0,1.303967271191691e-07,0.6,1.303967271191691e-07,0.6000002064025594
1.343967271191691e-07,0,1.343967271191691e-07,0.6,1.343967271191691e-07,0.5999999628274892
1.383967271191692e-07,0,1.383967271191692e-07,0.6,1.383967271191692e-07,0.6000002062453408
1.423967271191692e-07,0,1.423967271191692e-07,0.6,1.423967271191692e-07,0.5999999630235546
1.463967271191692e-07,0,1.463967271191692e-07,0.6,1.463967271191692e-07,0.6000002060558391
1.503967271191692e-07,0,1.503967271191692e-07,0.6,1.503967271191692e-07,0.5999999632465404
1.543967271191692e-07,0,1.543967271191692e-07,0.6,1.543967271191692e-07,0.6000002058356769
1.583967271191692e-07,0,1.583967271191692e-07,0.6,1.583967271191692e-07,0.5999999634957472
1.623967271191692e-07,0,1.623967271191692e-07,0.6,1.623967271191692e-07,0.6000002055864062
1.663967271191692e-07,0,1.663967271191692e-07,0.6,1.663967271191692e-07,0.5999999637698734
1.703967271191692e-07,0,1.703967271191692e-07,0.6,1.703967271191692e-07,0.6000002053106376
1.743967271191692e-07,0,1.743967271191692e-07,0.6,1.743967271191692e-07,0.5999999640688475
1.771983635595846e-07,0,1.771983635595846e-07,0.6,1.771983635595846e-07,0.6000002049372399
1.8e-07,0,1.8e-07,0.6,1.8e-07,0.59999996453497
1.800000390625e-07,0.002343750000163958,1.800000390625e-07,0.6,1.800000390625e-07,0.6000458405584821
1.800001171875e-07,0.007031250000491873,1.800001171875e-07,0.6,1.800001171875e-07,0.6001683449025059
1.8000015625e-07,0.009375000000655833,1.8000015625e-07,0.6,1.8000015625e-07,0.60028584996592
1.80000234375e-07,0.01406250000098375,1.80000234375e-07,0.6,1.80000234375e-07,0.600445724827919
1.800003763647206e-07,0.02258188323732088,1.800003763647206e-07,0.6,1.800003763647206e-07,0.6007319736983692
1.800006171336138e-07,0.03702801682785593,1.800006171336138e-07,0.6,1.800006171336138e-07,0.601201995930689
1.800010986714001e-07,0.06592028400892601,1.800010986714001e-07,0.6,1.800010986714001e-07,0.6020915697711782
1.800020617469728e-07,0.1237048183710662,1.800020617469728e-07,0.6,1.800020617469728e-07,0.603668624555867
1.800039878981183e-07,0.2392738870953465,1.800039878981183e-07,0.6,1.800039878981183e-07,0.6060024981982258
1.800070360850669e-07,0.4221651040117996,1.800070360850669e-07,0.6,1.800070360850669e-07,0.6080760092285554
1.8001e-07,0.6,1.8001e-07,0.6,1.8001e-07,0.6080054284327423
1.800101579021431e-07,0.6,1.800101579021431e-07,0.6,1.800101579021431e-07,0.6076659031463167
1.800104737064294e-07,0.6,1.800104737064294e-07,0.6,1.800104737064294e-07,0.6069603911154366
1.800106316085725e-07,0.6,1.800106316085725e-07,0.6,1.800106316085725e-07,0.6066146460521765
1.800109474128587e-07,0.6,1.800109474128587e-07,0.6,1.800109474128587e-07,0.6059536151406044
1.800115790214312e-07,0.6,1.800115790214312e-07,0.6,1.800115790214312e-07,0.6047141123195461
1.800125744575345e-07,0.6,1.800125744575345e-07,0.6,1.800125744575345e-07,0.6029899457782474
1.800145653297409e-07,0.6,1.800145653297409e-07,0.6,1.800145653297409e-07,0.6002627972272315
1.800154998664366e-07,0.6,1.800154998664366e-07,0.6,1.800154998664366e-07,0.599376507241172
1.80017368939828e-07,0.6,1.80017368939828e-07,0.6,1.80017368939828e-07,0.5980287979004425
1.800211070866108e-07,0.6,1.800211070866108e-07,0.6,1.800211070866108e-07,0.5964952883965325
1.80027250707752e-07,0.6,1.80027250707752e-07,0.6,1.80027250707752e-07,0.5960903461825151
1.800341080890437e-07,0.6,1.800341080890437e-07,0.6,1.800341080890437e-07,0.5970104799640938
1.800426070698249e-07,0.6,1.800426070698249e-07,0.6,1.800426070698249e-07,0.5983097271640734
1.800494411533755e-07,0.6,1.800494411533755e-07,0.6,1.800494411533755e-07,0.5990596648501301
1.800577700068281e-07,0.6,1.800577700068281e-07,0.6,1.800577700068281e-07,0.5996071520835823
1.80068571078226e-07,0.6,1.80068571078226e-07,0.6,1.80068571078226e-07,0.5999349356606783
1.800851138843278e-07,0.6,1.800851138843278e-07,0.6,1.800851138843278e-07,0.600049238682279
1.80103400369816e-07,0.6,1.80103400369816e-07,0.6,1.80103400369816e-07,0.6000268491956484
1.801171676477715e-07,0.6,1.801171676477715e-07,0.6,1.801171676477715e-07,0.6000151719011678
1.801313278400447e-07,0.6,1.801313278400447e-07,0.6,1.801313278400447e-07,0.6000141868512044
1.801495484597001e-07,0.6,1.801495484597001e-07,0.6,1.801495484597001e-07,0.6000145395888574
1.801841421592059e-07,0.6,1.801841421592059e-07,0.6,1.801841421592059e-07,0.6000080051730401
1.80227550671784e-07,0.6,1.80227550671784e-07,0.6,1.80227550671784e-07,0.6000065206269029
1.802714354537112e-07,0.6,1.802714354537112e-07,0.6,1.802714354537112e-07,0.6002571825375835
1.803123913284735e-07,0.6,1.803123913284735e-07,0.6,1.803123913284735e-07,0.6012674417335351
1.803498287150074e-07,0.6,1.803498287150074e-07,0.6,1.803498287150074e-07,0.6032386475926
1.803849962341267e-07,0.6,1.803849962341267e-07,0.6,1.803849962341267e-07,0.6062091103910267
1.804170226081778e-07,0.6,1.804170226081778e-07,0.6,1.804170226081778e-07,0.6099832468195038
1.804494547381402e-07,0.6,1.804494547381402e-07,0.6,1.804494547381402e-07,0.6153583685300996
1.804797273690701e-07,0.6,1.804797273690701e-07,0.6,1.804797273690701e-07,0.6217542394892775
1.8051e-07,0.6,1.8051e-07,0.6,1.8051e-07,0.6291434638843731
1.805100390625e-07,0.5976562499984898,1.805100390625e-07,0.6,1.805100390625e-07,0.6291024569711318
1.805101171875e-07,0.5929687499981618,1.805101171875e-07,0.6,1.805101171875e-07,0.6289967863385584
1.805102734375e-07,0.583593749997506,1.805102734375e-07,0.6,1.805102734375e-07,0.6287654970807069
1.805104550131674e-07,0.5726992099577554,1.805104550131674e-07,0.6,1.805104550131674e-07,0.6285101899074355
1.805107548719607e-07,0.5547076823606912,1.805107548719607e-07,0.6,1.805107548719607e-07,0.6280949443127644
1.805112826435204e-07,0.523041388774106,1.805112826435204e-07,0.6,1.805112826435204e-07,0.6273990640064788
1.8051214174106e-07,0.4714955363999841,1.8051214174106e-07,0.6,1.8051214174106e-07,0.6263400098871105
1.805136863827944e-07,0.378817032333725,1.805136863827944e-07,0.6,1.805136863827944e-07,0.624747895913771
1.805162098234336e-07,0.227410593985781,1.805162098234336e-07,0.6,1.805162098234336e-07,0.6230207531287071
1.805181049117168e-07,0.1137052969910831,1.805181049117168e-07,0.6,1.805181049117168e-07,0.622445916403408
1.8052e-07,0,1.8052e-07,0.6,1.8052e-07,0.623116162319188
1.805201266148897e-07,0,1.805201266148897e-07,0.6,1.805201266148897e-07,0.623413284051818
1.805203798446689e-07,0,1.805203798446689e-07,0.6,1.805203798446689e-07,0.6240430144186634
1.805205064595585e-07,0,1.805205064595585e-07,0.6,1.805205064595585e-07,0.6243601271628828
1.805207596893378e-07,0,1.805207596893378e-07,0.6,1.805207596893378e-07,0.6249759615407035
1.805212299146434e-07,0,1.805212299146434e-07,0.6,1.805212299146434e-07,0.626096169308758
1.805218824024802e-07,0,1.805218824024802e-07,0.6,1.805218824024802e-07,0.6275845678572982
1.805222086463986e-07,0,1.805222086463986e-07,0.6,1.805222086463986e-07,0.6283048480353004
1.805228611342354e-07,0,1.805228611342354e-07,0.6,1.805228611342354e-07,0.629691036245396
1.80524166109909e-07,0,1.80524166109909e-07,0.6,1.80524166109909e-07,0.6322749153249144
1.805264615991155e-07,0,1.805264615991155e-07,0.6,1.805264615991155e-07,0.6362464773198981
1.805310525775284e-07,0,1.805310525775284e-07,0.6,1.805310525775284e-07,0.642343631727556
1.805325764412086e-07,0,1.805325764412086e-07,0.6,1.805325764412086e-07,0.6438916297663891
1.805356241685688e-07,0,1.805356241685688e-07,0.6,1.805356241685688e-07,0.6464144701363034
1.805417196232893e-07,0,1.805417196232893e-07,0.6,1.805417196232893e-07,0.6495949635287593
1.80549873651464e-07,0,1.80549873651464e-07,0.6,1.80549873651464e-07,0.6509321256961492
1.805593251185836e-07,0,1.805593251185836e-07,0.6,1.805593251185836e-07,0.6496578966813046
1.805709787736157e-07,0,1.805709787736157e-07,0.6,1.805709787736157e-07,0.6461844199571868
1.805812509651027e-07,0,1.805812509651027e-07,0.6,1.805812509651027e-07,0.6428055392491553
1.805904136482629e-07,0,1.805904136482629e-07,0.6,1.805904136482629e-07,0.6399297422370733
1.80602455092159e-07,0,1.80602455092159e-07,0.6,1.80602455092159e-07,0.6364357623591498
1.806190577029423e-07,0,1.806190577029423e-07,0.6,1.806190577029423e-07,0.6321199384383466
1.8064053330742e-07,0,1.8064053330742e-07,0.6,1.8064053330742e-07,0.627261580831763
1.806702524134538e-07,0,1.806702524134538e-07,0.6,1.806702524134538e-07,0.6216271287988453
1.807139677290455e-07,0,1.807139677290455e-07,0.6,1.807139677290455e-07,0.6150933754444285
1.80777142940713e-07,0,1.80777142940713e-07,0.6,1.80777142940713e-07,0.6082597312525718
1.808538611623673e-07,0,1.808538611623673e-07,0.6,1.808538611623673e-07,0.6023346811964742
1.809351421097128e-07,0,1.809351421097128e-07,0.6,1.809351421097128e-07,0.5973536891597199
1.809675710548564e-07,0,1.809675710548564e-07,0.6,1.809675710548564e-07,0.5955537198404331
1.81e-07,0,1.81e-07,0.6,1.81e-07,0.5938443553497414
1.8100015625e-07,0.00937500000039527,1.8100015625e-07,0.6,1.8100015625e-07,0.594096055891668
1.8100046875e-07,0.02812500000170693,1.8100046875e-07,0.6,1.8100046875e-07,0.5946607160769181
1.81000625e-07,0.03750000000236277,1.81000625e-07,0.6,1.81000625e-07,0.5949428091758873
1.810009375000001e-07,0.05625000000367443,1.810009375000001e-07,0.6,1.810009375000001e-07,0.5954813489929554
1.810015366768178e-07,0.09220060906765679,1.810015366768178e-07,0.6,1.810015366768178e-07,0.5964692140523434
1.810023613808918e-07,0.1416828535080552,1.810023613808918e-07,0.6,1.810023613808918e-07,0.5976888316184074
1.810039806836071e-07,0.2388410164279289,1.810039806836071e-07,0.6,1.810039806836071e-07,0.5996029019202922
1.810068012433586e-07,0.408074601517424,1.810068012433586e-07,0.6,1.810068012433586e-07,0.6016770177042884
1.8101e-07,0.6,1.8101e-07,0.6,1.8101e-07,0.6020643998581243
1.810101683727048e-07,0.6,1.810101683727048e-07,0.6,1.810101683727048e-07,0.6017758897286677
1.810105051181144e-07,0.6,1.810105051181144e-07,0.6,1.810105051181144e-07,0.6011731319284177
1.810111786089336e-07,0.6,1.810111786089336e-07,0.6,1.810111786089336e-07,0.59999531508496
1.810118399379103e-07,0.6,1.810118399379103e-07,0.6,1.810118399379103e-07,0.5988899406443438
1.810131625958638e-07,0.6,1.810131625958638e-07,0.6,1.810131625958638e-07,0.5967949330158996
