/CK (x=0.7) X,/CK (x=0.7) Y,/D (x=0.7) X,/D (x=0.7) Y,/QD (x=0.7) X,/QD (x=0.7) Y
0,0,0,0,0,6.910941346713345e-08
9.765624999999999e-15,0,9.765624999999999e-15,0.00068359375,9.765624999999999e-15,6.933949382902549e-08
2.9296875e-14,0,2.9296875e-14,0.00205078125,2.9296875e-14,7.045076491562805e-08
6.8359375e-14,0,6.8359375e-14,0.00478515625,6.8359375e-14,7.296865264750612e-08
1.257925293461194e-13,0,1.257925293461194e-13,0.008805477054228357,1.257925293461194e-13,7.649750998840292e-08
2.406588380383582e-13,0,2.406588380383582e-13,0.01684611866268507,2.406588380383582e-13,8.635235781517081e-08
3.820329925669427e-13,0,3.820329925669427e-13,0.02674230947968598,3.820329925669427e-13,9.681496370058793e-08
6.647813016241115e-13,0,6.647813016241115e-13,0.04653469111368781,6.647813016241115e-13,1.12615888476587e-07
1.230277919738449e-12,0,1.230277919738449e-12,0.08611945438169147,1.230277919738449e-12,1.440174616621047e-07
2.344160943846836e-12,0,2.344160943846836e-12,0.1640912660692785,2.344160943846836e-12,1.717279821686807e-07
4.295386319785758e-12,0,4.295386319785758e-12,0.300677042385003,4.295386319785758e-12,1.652512479702905e-07
7.147693159892879e-12,0,7.147693159892879e-12,0.5003385211925014,7.147693159892879e-12,8.639891686019283e-08
8.573846579946439e-12,0,8.573846579946439e-12,0.6001692605962508,8.573846579946439e-12,4.275902132409054e-08
9.999999999999999e-12,0,9.999999999999999e-12,0.7,9.999999999999999e-12,-2.386379812002407e-09
1.002308264708436e-11,0,1.002308264708436e-11,0.7,1.002308264708436e-11,-3.772937232923275e-09
1.006924794125307e-11,0,1.006924794125307e-11,0.7,1.006924794125307e-11,-7.331379108094769e-09
1.016157852959049e-11,0,1.016157852959049e-11,0.7,1.016157852959049e-11,-1.450547527115538e-08
1.028544115256198e-11,0,1.028544115256198e-11,0.7,1.028544115256198e-11,-2.295393062135125e-08
1.032998472212779e-11,0,1.032998472212779e-11,0.7,1.032998472212779e-11,-2.610844185748613e-08
1.04190718612594e-11,0,1.04190718612594e-11,0.7,1.04190718612594e-11,-3.180099042104918e-08
1.059724613952261e-11,0,1.059724613952261e-11,0.7,1.059724613952261e-11,-4.260692614938613e-08
1.095359469604904e-11,0,1.095359469604904e-11,0.7,1.095359469604904e-11,-6.090553121656545e-08
1.16662918091019e-11,0,1.16662918091019e-11,0.7,1.16662918091019e-11,-8.647370065834275e-08
1.202264036562833e-11,0,1.202264036562833e-11,0.7,1.202264036562833e-11,-9.304468879214758e-08
1.273533747868118e-11,0,1.273533747868118e-11,0.7,1.273533747868118e-11,-1.001480064908993e-07
1.41607317047869e-11,0,1.41607317047869e-11,0.7,1.41607317047869e-11,-9.126765234869667e-08
1.655361904878459e-11,0,1.655361904878459e-11,0.7,1.655361904878459e-11,-3.896758626520616e-08
1.893278520576552e-11,0,1.893278520576552e-11,0.7,1.893278520576552e-11,2.638333033963901e-08
2.172045821330502e-11,0,2.172045821330502e-11,0.7,2.172045821330502e-11,9.108371102094891e-08
2.512249241868679e-11,0,2.512249241868679e-11,0.7,2.512249241868679e-11,1.306812173520679e-07
2.960071247133436e-11,0,2.960071247133436e-11,0.7,2.960071247133436e-11,1.377057427310563e-07
3.544461252400114e-11,0,3.544461252400114e-11,0.7,3.544461252400114e-11,1.120522734893192e-07
4.351059495278783e-11,0,4.351059495278783e-11,0.7,4.351059495278783e-11,7.433415992838529e-08
5.533104749506707e-11,0,5.533104749506707e-11,0.7,5.533104749506707e-11,5.55493673098953e-08
7.09256513877902e-11,0,7.09256513877902e-11,0.7,7.09256513877902e-11,6.501047694590739e-08
8.588178112326447e-11,0,8.588178112326447e-11,0.7,8.588178112326447e-11,6.760682388496898e-08
9.935530666623994e-11,0,9.935530666623994e-11,0.7,9.935530666623994e-11,6.776838520670264e-08
1.097270651890155e-10,0,1.097270651890155e-10,0.7,1.097270651890155e-10,6.937801581676967e-08
1.188923326375087e-10,0,1.188923326375087e-10,0.7,1.188923326375087e-10,6.954415157827065e-08
1.272006781096284e-10,0,1.272006781096284e-10,0.7,1.272006781096284e-10,7.162580291532889e-08
1.362690871306276e-10,0,1.362690871306276e-10,0.7,1.362690871306276e-10,1.318104703901167e-07
1.429522202303082e-10,0,1.429522202303082e-10,0.7,1.429522202303082e-10,3.170456574543871e-07
1.488138368407902e-10,0,1.488138368407902e-10,0.7,1.488138368407902e-10,3.776943398394156e-07
1.556218272950084e-10,0,1.556218272950084e-10,0.7,1.556218272950084e-10,1.109838853165955e-07
1.622705588573345e-10,0,1.622705588573345e-10,0.7,1.622705588573345e-10,-1.850542840819358e-07
1.685306828939429e-10,0,1.685306828939429e-10,0.7,1.685306828939429e-10,-2.750168226558451e-07
1.765757915892565e-10,0,1.765757915892565e-10,0.7,1.765757915892565e-10,-2.13385496184958e-07
1.879181905450651e-10,0,1.879181905450651e-10,0.7,1.879181905450651e-10,2.672835974512354e-09
1.998197047040855e-10,0,1.998197047040855e-10,0.7,1.998197047040855e-10,1.296301446120321e-07
2.112359595500249e-10,0,2.112359595500249e-10,0.7,2.112359595500249e-10,9.028583349247633e-08
2.207229972749326e-10,0,2.207229972749326e-10,0.7,2.207229972749326e-10,8.3443521001346e-08
2.274673611708336e-10,0,2.274673611708336e-10,0.7,2.274673611708336e-10,1.426119173444995e-07
2.341474891398731e-10,0,2.341474891398731e-10,0.7,2.341474891398731e-10,1.972852612504243e-07
2.44215818973486e-10,0,2.44215818973486e-10,0.7,2.44215818973486e-10,1.769288392992653e-07
2.528934339613196e-10,0,2.528934339613196e-10,0.7,2.528934339613196e-10,1.285387227803631e-07
2.64556743419556e-10,0,2.64556743419556e-10,0.7,2.64556743419556e-10,8.059623978500063e-08
2.794993237923195e-10,0,2.794993237923195e-10,0.7,2.794993237923195e-10,5.437108474119272e-08
2.992747670975822e-10,0,2.992747670975822e-10,0.7,2.992747670975822e-10,4.872397902436243e-08
3.236095093291469e-10,0,3.236095093291469e-10,0.7,3.236095093291469e-10,5.859155573663647e-08
3.561958601978924e-10,0,3.561958601978924e-10,0.7,3.561958601978924e-10,6.739001184301535e-08
4.032261584145708e-10,0,4.032261584145708e-10,0.7,4.032261584145708e-10,6.922197880924498e-08
4.827021410286423e-10,0,4.827021410286423e-10,0.7,4.827021410286423e-10,6.916985713356033e-08
6.416541062567855e-10,0,6.416541062567855e-10,0.7,6.416541062567855e-10,6.900884601118371e-08
8.396286343952848e-10,0,8.396286343952848e-10,0.7,8.396286343952848e-10,6.923064813279851e-08
1.103414521363191e-09,0,1.103414521363191e-09,0.7,1.103414521363191e-09,6.897752493757016e-08
1.439513217110185e-09,0,1.439513217110185e-09,0.7,1.439513217110185e-09,6.924740718177508e-08
1.903635003556606e-09,0,1.903635003556606e-09,0.7,1.903635003556606e-09,6.89680254661893e-08
2.527999551301345e-09,0,2.527999551301345e-09,0.7,2.527999551301345e-09,6.925284026752556e-08
3.379879263839603e-09,0,3.379879263839603e-09,0.7,3.379879263839603e-09,6.896472881540103e-08
4.526150409597114e-09,0,4.526150409597114e-09,0.7,4.526150409597114e-09,6.925491287599993e-08
6.085300949809484e-09,0,6.085300949809484e-09,0.7,6.085300949809484e-09,6.896337671290464e-08
8.197113056459524e-09,0,8.197113056459524e-09,0.7,8.197113056459524e-09,6.925581471735361e-08
1.107632384270121e-08,0,1.107632384270121e-08,0.7,1.107632384270121e-08,6.896276168129836e-08
1.498759673967403e-08,0,1.498759673967403e-08,0.7,1.498759673967403e-08,6.925624072408588e-08
1.898759673967403e-08,0,1.898759673967403e-08,0.7,1.898759673967403e-08,6.896242175502866e-08
2.298759673967403e-08,0,2.298759673967403e-08,0.7,2.298759673967403e-08,6.925656259995491e-08
2.698759673967403e-08,0,2.698759673967403e-08,0.7,2.698759673967403e-08,6.896211373907098e-08
3.098759673967403e-08,0,3.098759673967403e-08,0.7,3.098759673967403e-08,6.925685696830188e-08
3.498759673967403e-08,0,3.498759673967403e-08,0.7,3.498759673967403e-08,6.896183280946109e-08
3.898759673967404e-08,0,3.898759673967404e-08,0.7,3.898759673967404e-08,6.925712466528109e-08
4.298759673967404e-08,0,4.298759673967404e-08,0.7,4.298759673967404e-08,6.896157814163408e-08
4.698759673967404e-08,0,4.698759673967404e-08,0.7,4.698759673967404e-08,6.925736650467637e-08
5.098759673967405e-08,0,5.098759673967405e-08,0.7,5.098759673967405e-08,6.89613489331463e-08
5.498759673967405e-08,0,5.498759673967405e-08,0.7,5.498759673967405e-08,6.925758327634973e-08
5.898759673967405e-08,0,5.898759673967405e-08,0.7,5.898759673967405e-08,6.896114440683489e-08
6.298759673967405e-08,0,6.298759673967405e-08,0.7,6.298759673967405e-08,6.925777574667257e-08
6.698759673967404e-08,0,6.698759673967404e-08,0.7,6.698759673967404e-08,6.896096380631864e-08
7.098759673967404e-08,0,7.098759673967404e-08,0.7,7.098759673967404e-08,6.925794466004609e-08
7.498759673967404e-08,0,7.498759673967404e-08,0.7,7.498759673967404e-08,6.896080639894619e-08
7.898759673967403e-08,0,7.898759673967403e-08,0.7,7.898759673967403e-08,6.925809074017673e-08
8.298759673967403e-08,0,8.298759673967403e-08,0.7,8.298759673967403e-08,6.896067147094258e-08
8.698759673967402e-08,0,8.698759673967402e-08,0.7,8.698759673967402e-08,6.925821468960626e-08
9.098759673967402e-08,0,9.098759673967402e-08,0.7,9.098759673967402e-08,6.896055832935732e-08
9.498759673967402e-08,0,9.498759673967402e-08,0.7,9.498759673967402e-08,6.925831719070719e-08
9.898759673967401e-08,0,9.898759673967401e-08,0.7,9.898759673967401e-08,6.896046630313456e-08
1.02987596739674e-07,0,1.02987596739674e-07,0.7,1.02987596739674e-07,6.925839890554799e-08
1.06987596739674e-07,0,1.06987596739674e-07,0.7,1.06987596739674e-07,6.896039473810252e-08
1.10987596739674e-07,0,1.10987596739674e-07,0.7,1.10987596739674e-07,6.925846047978866e-08
1.14987596739674e-07,0,1.14987596739674e-07,0.7,1.14987596739674e-07,6.896034299875223e-08
1.18987596739674e-07,0,1.18987596739674e-07,0.7,1.18987596739674e-07,6.925850253803339e-08
1.22987596739674e-07,0,1.22987596739674e-07,0.7,1.22987596739674e-07,6.896031046962207e-08
1.26987596739674e-07,0,1.26987596739674e-07,0.7,1.26987596739674e-07,6.925852568803824e-08
1.30987596739674e-07,0,1.30987596739674e-07,0.7,1.30987596739674e-07,6.896029655098857e-08
1.34987596739674e-07,0,1.34987596739674e-07,0.7,1.34987596739674e-07,6.925853052085511e-08
1.38987596739674e-07,0,1.38987596739674e-07,0.7,1.38987596739674e-07,6.896030066031647e-08
1.42987596739674e-07,0,1.42987596739674e-07,0.7,1.42987596739674e-07,6.925851761094988e-08
1.46987596739674e-07,0,1.46987596739674e-07,0.7,1.46987596739674e-07,6.896032223106456e-08
1.509875967396741e-07,0,1.509875967396741e-07,0.7,1.509875967396741e-07,6.925848751643585e-08
1.549875967396741e-07,0,1.549875967396741e-07,0.7,1.549875967396741e-07,6.896036071457336e-08
1.589875967396741e-07,0,1.589875967396741e-07,0.7,1.589875967396741e-07,6.925844077790675e-08
1.629875967396741e-07,0,1.629875967396741e-07,0.7,1.629875967396741e-07,6.896041557590816e-08
1.669875967396741e-07,0,1.669875967396741e-07,0.7,1.669875967396741e-07,6.925837792375006e-08
1.709875967396741e-07,0,1.709875967396741e-07,0.7,1.709875967396741e-07,6.896048629499693e-08
1.749875967396741e-07,0,1.749875967396741e-07,0.7,1.749875967396741e-07,6.925829946567697e-08
1.774937983698371e-07,0,1.774937983698371e-07,0.7,1.774937983698371e-07,6.896060090274069e-08
1.8e-07,0,1.8e-07,0.7,1.8e-07,6.925814317259235e-08
1.80000009765625e-07,0.0006835937491213788,1.80000009765625e-07,0.7,1.80000009765625e-07,2.052498119643832e-06
1.80000029296875e-07,0.002050781247364136,1.80000029296875e-07,0.7,1.80000029296875e-07,8.979059824726456e-06
1.800000683593749e-07,0.004785156243849651,1.800000683593749e-07,0.7,1.800000683593749e-07,2.984919574612137e-05
1.800000865082889e-07,0.006055580223122079,1.800000865082889e-07,0.7,1.800000865082889e-07,4.514445666734685e-05
1.800001228061169e-07,0.008596428181666938,1.800001228061169e-07,0.7,1.800001228061169e-07,6.816744663879501e-05
1.800001954017728e-07,0.01367812409875666,1.800001954017728e-07,0.7,1.800001954017728e-07,0.0001102549850730742
1.800003230190646e-07,0.02261133452392782,1.800003230190646e-07,0.7,1.800003230190646e-07,0.000183334660356419
1.800005782536482e-07,0.04047775537427015,1.800005782536482e-07,0.7,1.800005782536482e-07,0.0003142003811174512
1.800010887228154e-07,0.07621059707495481,1.800010887228154e-07,0.7,1.800010887228154e-07,0.0005328518489091239
1.800021096611497e-07,0.1476762804763241,1.800021096611497e-07,0.7,1.800021096611497e-07,0.0008172103781922325
1.800041515378183e-07,0.2906076472790627,1.800041515378183e-07,0.7,1.800041515378183e-07,0.0009833442110087946
1.800072060071324e-07,0.5044204992681428,1.800072060071324e-07,0.7,1.800072060071324e-07,0.0007200297406258286
1.800086030035662e-07,0.6022102496353947,1.800086030035662e-07,0.7,1.800086030035662e-07,0.0005228346373133303
1.8001e-07,0.7,1.8001e-07,0.7,1.8001e-07,0.0003142305531825596
1.800101162155048e-07,0.7,1.800101162155048e-07,0.7,1.800101162155048e-07,0.000223073637915323
1.800103486465144e-07,0.7,1.800103486465144e-07,0.7,1.800103486465144e-07,3.481540410643778e-05
1.800104548377351e-07,0.7,1.800104548377351e-07,0.7,1.800104548377351e-07,-5.343956678473494e-05
1.800106672201765e-07,0.7,1.800106672201765e-07,0.7,1.800106672201765e-07,-0.0002237117283319313
1.800110919850592e-07,0.7,1.800110919850592e-07,0.7,1.800110919850592e-07,-0.0005160878429505452
1.800117668104879e-07,0.7,1.800117668104879e-07,0.7,1.800117668104879e-07,-0.0008582611855253642
1.800131164613452e-07,0.7,1.800131164613452e-07,0.7,1.800131164613452e-07,-0.001209476718568021
1.800136880785871e-07,0.7,1.800136880785871e-07,0.7,1.800136880785871e-07,-0.001235098888503406
1.80014831313071e-07,0.7,1.80014831313071e-07,0.7,1.80014831313071e-07,-0.001201930115953862
1.800171177820388e-07,0.7,1.800171177820388e-07,0.7,1.800171177820388e-07,-0.0009517694095090185
1.800212192127717e-07,0.7,1.800212192127717e-07,0.7,1.800212192127717e-07,-0.0004037740988191169
1.800258799476198e-07,0.7,1.800258799476198e-07,0.7,1.800258799476198e-07,-1.592949846450152e-05
1.800315679535123e-07,0.7,1.800315679535123e-07,0.7,1.800315679535123e-07,0.000103540049610768
1.800385113126279e-07,0.7,1.800385113126279e-07,0.7,1.800385113126279e-07,9.664168351872861e-05
1.800480007671885e-07,0.7,1.800480007671885e-07,0.7,1.800480007671885e-07,6.684761796536674e-05
1.800579978387204e-07,0.7,1.800579978387204e-07,0.7,1.800579978387204e-07,0.0001168838089174782
1.800688077110093e-07,0.7,1.800688077110093e-07,0.7,1.800688077110093e-07,0.000262540294444951
1.800794451798118e-07,0.7,1.800794451798118e-07,0.7,1.800794451798118e-07,0.0003395429830249292
1.80088621701221e-07,0.7,1.80088621701221e-07,0.7,1.80088621701221e-07,0.0003968286843745123
1.800970912332929e-07,0.7,1.800970912332929e-07,0.7,1.800970912332929e-07,0.0005454799499989674
1.801077483910555e-07,0.7,1.801077483910555e-07,0.7,1.801077483910555e-07,0.0008474954782118326
1.801159080982667e-07,0.7,1.801159080982667e-07,0.7,1.801159080982667e-07,0.001036152337055873
1.801227476832476e-07,0.7,1.801227476832476e-07,0.7,1.801227476832476e-07,0.001087800675359172
1.801284590069412e-07,0.7,1.801284590069412e-07,0.7,1.801284590069412e-07,0.001041245267123722
1.80136079313092e-07,0.7,1.80136079313092e-07,0.7,1.80136079313092e-07,0.0008242048237240035
1.801418785999694e-07,0.7,1.801418785999694e-07,0.7,1.801418785999694e-07,0.0005059552033536046
1.801488790523584e-07,0.7,1.801488790523584e-07,0.7,1.801488790523584e-07,-0.0001650719343258226
1.801582569381277e-07,0.7,1.801582569381277e-07,0.7,1.801582569381277e-07,-0.001917228338406809
1.801689854345364e-07,0.7,1.801689854345364e-07,0.7,1.801689854345364e-07,-0.005920647808114553
1.801796203898379e-07,0.7,1.801796203898379e-07,0.7,1.801796203898379e-07,-0.01474712219360604
1.801919231670672e-07,0.7,1.801919231670672e-07,0.7,1.801919231670672e-07,-0.03939066583797619
1.802049312962438e-07,0.7,1.802049312962438e-07,0.7,1.802049312962438e-07,-0.0784275444142374
1.802148369024635e-07,0.7,1.802148369024635e-07,0.7,1.802148369024635e-07,-0.08444703143293207
1.802226465298474e-07,0.7,1.802226465298474e-07,0.7,1.802226465298474e-07,-0.03003703455190138
1.802283446920267e-07,0.7,1.802283446920267e-07,0.7,1.802283446920267e-07,0.06154343408776886
1.802340412166509e-07,0.7,1.802340412166509e-07,0.7,1.802340412166509e-07,0.1913045187859554
1.802385820568547e-07,0.7,1.802385820568547e-07,0.7,1.802385820568547e-07,0.3099627432177332
1.802434971476889e-07,0.7,1.802434971476889e-07,0.7,1.802434971476889e-07,0.4400202164901867
1.802481505334935e-07,0.7,1.802481505334935e-07,0.7,1.802481505334935e-07,0.5537930223496402
1.802529713455801e-07,0.7,1.802529713455801e-07,0.7,1.802529713455801e-07,0.6406420997322912
1.802568799901306e-07,0.7,1.802568799901306e-07,0.7,1.802568799901306e-07,0.6744198252718725
1.802609208400807e-07,0.7,1.802609208400807e-07,0.7,1.802609208400807e-07,0.6879668202214854
1.802648539269601e-07,0.7,1.802648539269601e-07,0.7,1.802648539269601e-07,0.6936539866380856
1.802686393695239e-07,0.7,1.802686393695239e-07,0.7,1.802686393695239e-07,0.6964152009146135
1.80274027765664e-07,0.7,1.80274027765664e-07,0.7,1.80274027765664e-07,0.6983050500246663
1.802819367158245e-07,0.7,1.802819367158245e-07,0.7,1.802819367158245e-07,0.6993781669068355
1.80292917063571e-07,0.7,1.80292917063571e-07,0.7,1.80292917063571e-07,0.6998282679586117
1.803082004530969e-07,0.7,1.803082004530969e-07,0.7,1.803082004530969e-07,0.6999769216265199
1.803278202209728e-07,0.7,1.803278202209728e-07,0.7,1.803278202209728e-07,0.6999979146568137
1.803566755440643e-07,0.7,1.803566755440643e-07,0.7,1.803566755440643e-07,0.6999996766705994
1.804074150368901e-07,0.7,1.804074150368901e-07,0.7,1.804074150368901e-07,0.6999998660616478
1.804587075184451e-07,0.7,1.804587075184451e-07,0.7,1.804587075184451e-07,0.7000000044730113
1.8051e-07,0.7,1.8051e-07,0.7,1.8051e-07,0.6999998275032063
1.805100390625e-07,0.6972656249982381,1.805100390625e-07,0.7,1.805100390625e-07,0.6999868582480144
1.805101171875e-07,0.6917968749978555,1.805101171875e-07,0.7,1.805101171875e-07,0.6999539946794827
1.8051015625e-07,0.6890624999976642,1.8051015625e-07,0.7,1.8051015625e-07,0.6999310616934287
1.80510234375e-07,0.6835937499972816,1.80510234375e-07,0.7,1.80510234375e-07,0.6998944219599793
1.80510390625e-07,0.6726562499965165,1.80510390625e-07,0.7,1.80510390625e-07,0.6998263243466342
1.805106333896668e-07,0.6556627233219445,1.805106333896668e-07,0.7,1.805106333896668e-07,0.6997277181607156
1.805111189190004e-07,0.6216756699728005,1.805111189190004e-07,0.7,1.805111189190004e-07,0.6995611282128562
1.805120899776675e-07,0.5537015632745126,1.805120899776675e-07,0.7,1.805120899776675e-07,0.6993220920607857
1.805140320950017e-07,0.4177533498779367,1.805140320950017e-07,0.7,1.805140320950017e-07,0.6991131012890667
1.80517029136624e-07,0.2079604363175265,1.80517029136624e-07,0.7,1.80517029136624e-07,0.6991737000267515
1.80518514568312e-07,0.1039802181575811,1.80518514568312e-07,0.7,1.80518514568312e-07,0.6992947610979184
1.8052e-07,0,1.8052e-07,0.7,1.8052e-07,0.6994390855119492
1.805201188669231e-07,0,1.805201188669231e-07,0.7,1.805201188669231e-07,0.6995166397832195
1.805203566007692e-07,0,1.805203566007692e-07,0.7,1.805203566007692e-07,0.6996821642359173
1.805204664051635e-07,0,1.805204664051635e-07,0.7,1.805204664051635e-07,0.6997009069352155
1.80520686013952e-07,0,1.80520686013952e-07,0.7,1.80520686013952e-07,0.6998707278112865
1.805211240983333e-07,0,1.805211240983333e-07,0.7,1.805211240983333e-07,0.7001650186255109
1.805217282427898e-07,0,1.805217282427898e-07,0.7,1.805217282427898e-07,0.7004814985799184
1.805220303150182e-07,0,1.805220303150182e-07,0.7,1.805220303150182e-07,0.7006058797651057
1.805226344594748e-07,0,1.805226344594748e-07,0.7,1.805226344594748e-07,0.700798046980591
1.80523842748388e-07,0,1.80523842748388e-07,0.7,1.80523842748388e-07,0.701009012789565
1.805261042586062e-07,0,1.805261042586062e-07,0.7,1.805261042586062e-07,0.7010168265240015
1.805297743165671e-07,0,1.805297743165671e-07,0.7,1.805297743165671e-07,0.7006483516570925
1.805337916337587e-07,0,1.805337916337587e-07,0.7,1.805337916337587e-07,0.7002615727505176
1.80538883457877e-07,0,1.80538883457877e-07,0.7,1.80538883457877e-07,0.7000034590132317
1.805452267991948e-07,0,1.805452267991948e-07,0.7,1.805452267991948e-07,0.6999067744336706
1.80553893875934e-07,0,1.80553893875934e-07,0.7,1.80553893875934e-07,0.6999158958539821
