/D (x=0.8) X,/D (x=0.8) Y,/CK (x=0.8) X,/CK (x=0.8) Y,/QD (x=0.8) X,/QD (x=0.8) Y
0,0,0,0,0,4.910393769411801e-08
9.765624999999999e-15,0.00078125,9.765624999999999e-15,0,9.765624999999999e-15,4.937388105806451e-08
2.9296875e-14,0.00234375,2.9296875e-14,0,2.9296875e-14,5.074628339843011e-08
6.8359375e-14,0.005468750000000001,6.8359375e-14,0,6.8359375e-14,5.391454450706936e-08
1.254567070059807e-13,0.01003653656047846,1.254567070059807e-13,0,1.254567070059807e-13,5.837255907320831e-08
2.396513710179422e-13,0.01917210968143538,2.396513710179422e-13,0,2.396513710179422e-13,7.086445648661233e-08
3.791716811870243e-13,0.03033373449496194,3.791716811870243e-13,0,3.791716811870243e-13,8.549684820837543e-08
6.582123015251884e-13,0.05265698412201508,6.582123015251884e-13,0,6.582123015251884e-13,1.042577837035491e-07
1.216293542201517e-12,0.09730348337612132,1.216293542201517e-12,0,1.216293542201517e-12,1.295642363035851e-07
2.332456023554173e-12,0.1865964818843339,2.332456023554173e-12,0,2.332456023554173e-12,1.387438309431757e-07
4.128562189767971e-12,0.3302849751814377,4.128562189767971e-12,0,4.128562189767971e-12,9.946529088129079e-08
7.287286106323578e-12,0.5829828885058863,7.287286106323578e-12,0,7.287286106323578e-12,-3.012670082302026e-08
8.643643053161788e-12,0.6914914442529431,8.643643053161788e-12,0,8.643643053161788e-12,-5.278840655182427e-08
9.999999999999999e-12,0.8,9.999999999999999e-12,0,9.999999999999999e-12,-6.623468681951341e-08
1.009711678314537e-11,0.8,1.009711678314537e-11,0,1.009711678314537e-11,-7.146085981868214e-08
1.014567517471805e-11,0.8,1.014567517471805e-11,0,1.014567517471805e-11,-7.423265726978628e-08
1.024279195786342e-11,0.8,1.024279195786342e-11,0,1.024279195786342e-11,-7.924438091027029e-08
1.043702552415416e-11,0.8,1.043702552415416e-11,0,1.043702552415416e-11,-8.687270318790335e-08
1.07335087487877e-11,0.8,1.07335087487877e-11,0,1.07335087487877e-11,-9.405227897478111e-08
1.088175036110447e-11,0.8,1.088175036110447e-11,0,1.088175036110447e-11,-9.561081841547936e-08
1.117823358573801e-11,0.8,1.117823358573801e-11,0,1.117823358573801e-11,-9.603057125358197e-08
1.177120003500509e-11,0.8,1.177120003500509e-11,0,1.177120003500509e-11,-8.269151874667669e-08
1.295713293353924e-11,0.8,1.295713293353924e-11,0,1.295713293353924e-11,-4.370460684225081e-08
1.43481906602775e-11,0.8,1.43481906602775e-11,0,1.43481906602775e-11,1.61286518031474e-08
1.605075825086283e-11,0.8,1.605075825086283e-11,0,1.605075825086283e-11,8.219628236817054e-08
1.811682645095588e-11,0.8,1.811682645095588e-11,0,1.811682645095588e-11,1.216416336004387e-07
2.076340192441908e-11,0.8,2.076340192441908e-11,0,2.076340192441908e-11,1.285325343108937e-07
2.418981169854077e-11,0.8,2.418981169854077e-11,0,2.418981169854077e-11,1.010238937862914e-07
2.889719861185658e-11,0.8,2.889719861185658e-11,0,2.889719861185658e-11,5.75220751087293e-08
3.582204557409247e-11,0.8,3.582204557409247e-11,0,3.582204557409247e-11,3.237025761789284e-08
4.370938574619094e-11,0.8,4.370938574619094e-11,0,4.370938574619094e-11,4.607674322825519e-08
5.191623846539643e-11,0.8,5.191623846539643e-11,0,5.191623846539643e-11,4.857463149445797e-08
5.788557656995878e-11,0.8,5.788557656995878e-11,0,5.788557656995878e-11,4.214838577860695e-08
6.266130737400224e-11,0.8,6.266130737400224e-11,0,6.266130737400224e-11,4.497221463849248e-08
6.752862037167403e-11,0.8,6.752862037167403e-11,0,6.752862037167403e-11,4.914402244274684e-08
7.085018689193859e-11,0.8,7.085018689193859e-11,0,7.085018689193859e-11,8.270979718534069e-08
7.45400589266158e-11,0.8,7.45400589266158e-11,0,7.45400589266158e-11,2.920876698412197e-07
7.742522009836825e-11,0.8,7.742522009836825e-11,0,7.742522009836825e-11,5.896420596388697e-07
8.068025965436489e-11,0.8,8.068025965436489e-11,0,8.068025965436489e-11,5.019269080171625e-07
8.369470780984784e-11,0.8,8.369470780984784e-11,0,8.369470780984784e-11,1.12063235430126e-07
8.694407029209049e-11,0.8,8.694407029209049e-11,0,8.694407029209049e-11,-2.559326366756149e-07
9.045609103500457e-11,0.8,9.045609103500457e-11,0,9.045609103500457e-11,-4.331732244415809e-07
9.534038227603648e-11,0.8,9.534038227603648e-11,0,9.534038227603648e-11,-5.159474919472911e-07
1.012198869234142e-10,0.8,1.012198869234142e-10,0,1.012198869234142e-10,-2.772264135450368e-07
1.068490136484233e-10,0.8,1.068490136484233e-10,0,1.068490136484233e-10,7.753360029337407e-08
1.119188262133898e-10,0.8,1.119188262133898e-10,0,1.119188262133898e-10,1.349892425167948e-07
1.155777875718615e-10,0.8,1.155777875718615e-10,0,1.155777875718615e-10,1.499178463425199e-07
1.194146068883454e-10,0.8,1.194146068883454e-10,0,1.194146068883454e-10,2.323942232226636e-07
1.231549781678144e-10,0.8,1.231549781678144e-10,0,1.231549781678144e-10,2.860625639797274e-07
1.284505523290841e-10,0.8,1.284505523290841e-10,0,1.284505523290841e-10,2.510267546158125e-07
1.337133473042958e-10,0.8,1.337133473042958e-10,0,1.337133473042958e-10,1.709918835525407e-07
1.406029663529316e-10,0.8,1.406029663529316e-10,0,1.406029663529316e-10,8.451963998528448e-08
1.495196554758363e-10,0.8,1.495196554758363e-10,0,1.495196554758363e-10,3.305556798940056e-08
1.60587135849377e-10,0.8,1.60587135849377e-10,0,1.60587135849377e-10,1.88744301908886e-08
1.739937939198233e-10,0.8,1.739937939198233e-10,0,1.739937939198233e-10,2.950449317448599e-08
1.911164257925026e-10,0.8,1.911164257925026e-10,0,1.911164257925026e-10,4.237572565149209e-08
2.146911393351765e-10,0.8,2.146911393351765e-10,0,2.146911393351765e-10,4.910052311075143e-08
2.504399643098225e-10,0.8,2.504399643098225e-10,0,2.504399643098225e-10,4.888166332766164e-08
3.132652661876843e-10,0.8,3.132652661876843e-10,0,3.132652661876843e-10,4.937182072693798e-08
4.121989812948941e-10,0.8,4.121989812948941e-10,0,4.121989812948941e-10,4.881688792051269e-08
5.400471522502052e-10,0.8,5.400471522502052e-10,0,5.400471522502052e-10,4.940262200293026e-08
7.069606388489258e-10,0.8,7.069606388489258e-10,0,7.069606388489258e-10,4.87977483283902e-08
9.289057283170841e-10,0.8,9.289057283170841e-10,0,9.289057283170841e-10,4.941511731163289e-08
1.231704294871602e-09,0.8,1.231704294871602e-09,0,1.231704294871602e-09,4.878940789871586e-08
1.644690344363995e-09,0.8,1.644690344363995e-09,0,1.644690344363995e-09,4.94207748801392e-08
2.204976464463981e-09,0.8,2.204976464463981e-09,0,2.204976464463981e-09,4.878547450836109e-08
2.969062098472144e-09,0.8,2.969062098472144e-09,0,2.969062098472144e-09,4.942355486182366e-08
4.007858416978707e-09,0.8,4.007858416978707e-09,0,4.007858416978707e-09,4.878349152937492e-08
5.432368560945782e-09,0.8,5.432368560945782e-09,0,5.432368560945782e-09,4.942497799289005e-08
7.375236436157104e-09,0.8,7.375236436157104e-09,0,7.375236436157104e-09,4.878246713618271e-08
1.004710680596851e-08,0.8,1.004710680596851e-08,0,1.004710680596851e-08,4.94257182126817e-08
1.369826772477718e-08,0.8,1.369826772477718e-08,0,1.369826772477718e-08,4.878193178423582e-08
1.769826772477717e-08,0.8,1.769826772477717e-08,0,1.769826772477717e-08,4.942614817042016e-08
2.169826772477717e-08,0.8,2.169826772477717e-08,0,2.169826772477717e-08,4.878152361536578e-08
2.569826772477717e-08,0.8,2.569826772477717e-08,0,2.569826772477717e-08,4.942655426770229e-08
2.969826772477717e-08,0.8,2.969826772477717e-08,0,2.969826772477717e-08,4.878111957589104e-08
3.369826772477717e-08,0.8,3.369826772477717e-08,0,3.369826772477717e-08,4.942695626321734e-08
3.769826772477717e-08,0.8,3.769826772477717e-08,0,3.769826772477717e-08,4.878071961036847e-08
4.169826772477718e-08,0.8,4.169826772477718e-08,0,4.169826772477718e-08,4.942735421215139e-08
4.569826772477718e-08,0.8,4.569826772477718e-08,0,4.569826772477718e-08,4.878032366467435e-08
4.969826772477718e-08,0.8,4.969826772477718e-08,0,4.969826772477718e-08,4.942774816793411e-08
5.369826772477719e-08,0.8,5.369826772477719e-08,0,5.369826772477719e-08,4.877993168537945e-08
5.769826772477719e-08,0.8,5.769826772477719e-08,0,5.769826772477719e-08,4.942813818364972e-08
6.169826772477719e-08,0.8,6.169826772477719e-08,0,6.169826772477719e-08,4.8779543620418e-08
6.569826772477719e-08,0.8,6.569826772477719e-08,0,6.569826772477719e-08,4.942852431107473e-08
6.969826772477718e-08,0.8,6.969826772477718e-08,0,6.969826772477718e-08,4.877915941787001e-08
7.369826772477718e-08,0.8,7.369826772477718e-08,0,7.369826772477718e-08,4.942890660115576e-08
7.769826772477718e-08,0.8,7.769826772477718e-08,0,7.769826772477718e-08,4.877877902773275e-08
8.169826772477717e-08,0.8,8.169826772477717e-08,0,8.169826772477717e-08,4.942928510394428e-08
8.569826772477717e-08,0.8,8.569826772477717e-08,0,8.569826772477717e-08,4.877840240006802e-08
8.969826772477716e-08,0.8,8.969826772477716e-08,0,8.969826772477716e-08,4.942965986866371e-08
9.369826772477716e-08,0.8,9.369826772477716e-08,0,9.369826772477716e-08,4.877802948599936e-08
9.769826772477716e-08,0.8,9.769826772477716e-08,0,9.769826772477716e-08,4.943003094403216e-08
1.016982677247772e-07,0.8,1.016982677247772e-07,0,1.016982677247772e-07,4.877766023754111e-08
1.056982677247771e-07,0.8,1.056982677247771e-07,0,1.056982677247771e-07,4.943039837745936e-08
1.096982677247771e-07,0.8,1.096982677247771e-07,0,1.096982677247771e-07,4.877729460742479e-08
1.136982677247771e-07,0.8,1.136982677247771e-07,0,1.136982677247771e-07,4.943076221582544e-08
1.176982677247771e-07,0.8,1.176982677247771e-07,0,1.176982677247771e-07,4.877693254950461e-08
1.216982677247771e-07,0.8,1.216982677247771e-07,0,1.216982677247771e-07,4.943112250467562e-08
1.256982677247771e-07,0.8,1.256982677247771e-07,0,1.256982677247771e-07,4.877657401836897e-08
1.296982677247772e-07,0.8,1.296982677247772e-07,0,1.296982677247772e-07,4.943147928937658e-08
1.336982677247772e-07,0.8,1.336982677247772e-07,0,1.336982677247772e-07,4.877621896909663e-08
1.376982677247772e-07,0.8,1.376982677247772e-07,0,1.376982677247772e-07,4.94318326143653e-08
1.416982677247772e-07,0.8,1.416982677247772e-07,0,1.416982677247772e-07,4.877586735722114e-08
1.456982677247772e-07,0.8,1.456982677247772e-07,0,1.456982677247772e-07,4.943218252356423e-08
1.496982677247772e-07,0.8,1.496982677247772e-07,0,1.496982677247772e-07,4.877551914001299e-08
1.536982677247772e-07,0.8,1.536982677247772e-07,0,1.536982677247772e-07,4.943252905971684e-08
1.576982677247772e-07,0.8,1.576982677247772e-07,0,1.576982677247772e-07,4.877517427437008e-08
1.616982677247772e-07,0.8,1.616982677247772e-07,0,1.616982677247772e-07,4.943287226530617e-08
1.656982677247772e-07,0.8,1.656982677247772e-07,0,1.656982677247772e-07,4.877483271860298e-08
1.696982677247772e-07,0.8,1.696982677247772e-07,0,1.696982677247772e-07,4.943321218161238e-08
1.736982677247773e-07,0.8,1.736982677247773e-07,0,1.736982677247773e-07,4.87744944314417e-08
1.768491338623886e-07,0.8,1.768491338623886e-07,0,1.768491338623886e-07,4.943359396851128e-08
1.8e-07,0.8,1.8e-07,0,1.8e-07,4.877406962313078e-08
1.80000009765625e-07,0.8,1.80000009765625e-07,0.0007812499989958615,1.80000009765625e-07,2.266960230547507e-06
1.80000029296875e-07,0.8,1.80000029296875e-07,0.002343749996987585,1.80000029296875e-07,1.006119951976779e-05
1.800000683593749e-07,0.8,1.800000683593749e-07,0.005468749992971031,1.800000683593749e-07,3.367166921153713e-05
1.80000086430265e-07,0.8,1.80000086430265e-07,0.006914421201413844,1.80000086430265e-07,5.1567133660156e-05
1.800001225720452e-07,0.8,1.800001225720452e-07,0.009805763618299471,1.800001225720452e-07,7.744400313334956e-05
1.800001948556056e-07,0.8,1.800001948556056e-07,0.01558844845207073,1.800001948556056e-07,0.0001240590678837143
1.800003025895218e-07,0.8,1.800003025895218e-07,0.02420716174076647,1.800003025895218e-07,0.0001916654520691244
1.800005024510905e-07,0.8,1.800005024510905e-07,0.04019608724324409,1.800005024510905e-07,0.0002989880664937019
1.800008511238149e-07,0.8,1.800008511238149e-07,0.06808990519401752,1.800008511238149e-07,0.0004504015265156302
1.800014777112026e-07,0.8,1.800014777112026e-07,0.1182168962119093,1.800014777112026e-07,0.0006167944898128219
1.800026547212211e-07,0.8,1.800026547212211e-07,0.212377697685706,1.800026547212211e-07,0.0006967719589290317
1.800046544204954e-07,0.8,1.800046544204954e-07,0.3723536396314327,1.800046544204954e-07,0.0004942778737554907
1.800071660655756e-07,0.8,1.800071660655756e-07,0.5732852460457231,1.800071660655756e-07,0.0001102795033294998
1.800085830327878e-07,0.8,1.800085830327878e-07,0.6866426230222563,1.800085830327878e-07,-5.45107751077296e-05
1.8001e-07,0.8,1.8001e-07,0.8,1.8001e-07,-0.000187551401294893
1.800100949717148e-07,0.8,1.800100949717148e-07,0.8,1.800100949717148e-07,-0.0003100549958956177
1.800102849151445e-07,0.8,1.800102849151445e-07,0.8,1.800102849151445e-07,-0.0004975541960006247
1.800103798868593e-07,0.8,1.800103798868593e-07,0.8,1.800103798868593e-07,-0.000582363470312099
1.800105698302889e-07,0.8,1.800105698302889e-07,0.8,1.800105698302889e-07,-0.0007258979387135362
1.800109497171482e-07,0.8,1.800109497171482e-07,0.8,1.800109497171482e-07,-0.0009427395134732473
1.800110942943211e-07,0.8,1.800110942943211e-07,0.8,1.800110942943211e-07,-0.0009931814907307122
1.80011383448667e-07,0.8,1.80011383448667e-07,0.8,1.80011383448667e-07,-0.001056501796829565
1.800119617573589e-07,0.8,1.800119617573589e-07,0.8,1.800119617573589e-07,-0.001103528180729842
1.800130999827369e-07,0.8,1.800130999827369e-07,0.8,1.800130999827369e-07,-0.001007737345532031
1.800151753846822e-07,0.8,1.800151753846822e-07,0.8,1.800151753846822e-07,-0.000600908449402816
1.800176861137294e-07,0.8,1.800176861137294e-07,0.8,1.800176861137294e-07,-0.000164156655740114
1.80021115827927e-07,0.8,1.80021115827927e-07,0.8,1.80021115827927e-07,8.065140059520317e-05
1.80025157745149e-07,0.8,1.80025157745149e-07,0.8,1.80025157745149e-07,0.0001213062259812901
1.800306200077449e-07,0.8,1.800306200077449e-07,0.8,1.800306200077449e-07,0.0001513539437447115
1.800352297795433e-07,0.8,1.800352297795433e-07,0.8,1.800352297795433e-07,0.0002871360755276098
1.800402946255788e-07,0.8,1.800402946255788e-07,0.8,1.800402946255788e-07,0.0004535687649978652
1.800454779916539e-07,0.8,1.800454779916539e-07,0.8,1.800454779916539e-07,0.0004574593752455691
1.800496428312911e-07,0.8,1.800496428312911e-07,0.8,1.800496428312911e-07,0.0004587783580381792
1.80054133794524e-07,0.8,1.80054133794524e-07,0.8,1.80054133794524e-07,0.000545513755303252
1.800574792707729e-07,0.8,1.800574792707729e-07,0.8,1.800574792707729e-07,0.0006944284222079113
1.800613399776515e-07,0.8,1.800613399776515e-07,0.8,1.800613399776515e-07,0.0009553971627894082
1.800645722893929e-07,0.8,1.800645722893929e-07,0.8,1.800645722893929e-07,0.001195973433839459
1.800675069734121e-07,0.8,1.800675069734121e-07,0.8,1.800675069734121e-07,0.001356458585656697
1.800711162076767e-07,0.8,1.800711162076767e-07,0.8,1.800711162076767e-07,0.001399142107661699
1.800741998729572e-07,0.8,1.800741998729572e-07,0.8,1.800741998729572e-07,0.001263416567617103
1.800776972780948e-07,0.8,1.800776972780948e-07,0.8,1.800776972780948e-07,0.0008690357458367993
1.800823158436178e-07,0.8,1.800823158436178e-07,0.8,1.800823158436178e-07,-0.0002506738012235722
1.800886016028975e-07,0.8,1.800886016028975e-07,0.8,1.800886016028975e-07,-0.003752989636051971
1.800942077353471e-07,0.8,1.800942077353471e-07,0.8,1.800942077353471e-07,-0.009707423127020869
1.801001968880399e-07,0.8,1.801001968880399e-07,0.8,1.801001968880399e-07,-0.02268201566954232
1.801066993170757e-07,0.8,1.801066993170757e-07,0.8,1.801066993170757e-07,-0.05535042803032472
1.801133911302945e-07,0.8,1.801133911302945e-07,0.8,1.801133911302945e-07,-0.09187103433737079
1.801166433286159e-07,0.8,1.801166433286159e-07,0.8,1.801166433286159e-07,-0.08471224559821358
1.801202077055238e-07,0.8,1.801202077055238e-07,0.8,1.801202077055238e-07,-0.01843889142122038
1.801228416516849e-07,0.8,1.801228416516849e-07,0.8,1.801228416516849e-07,0.07825989819149246
1.801262701301139e-07,0.8,1.801262701301139e-07,0.8,1.801262701301139e-07,0.2508274321750176
1.801294272140846e-07,0.8,1.801294272140846e-07,0.8,1.801294272140846e-07,0.4321270378156177
1.8013201983183e-07,0.8,1.8013201983183e-07,0.8,1.8013201983183e-07,0.5772110028148141
1.801344989291164e-07,0.8,1.801344989291164e-07,0.8,1.801344989291164e-07,0.6904052563629721
1.801366707649161e-07,0.8,1.801366707649161e-07,0.8,1.801366707649161e-07,0.7479234179231208
1.801386416992181e-07,0.8,1.801386416992181e-07,0.8,1.801386416992181e-07,0.7710606823966819
1.801404741004219e-07,0.8,1.801404741004219e-07,0.8,1.801404741004219e-07,0.7820809685602057
1.801423339163794e-07,0.8,1.801423339163794e-07,0.8,1.801423339163794e-07,0.7886278268312619
1.801448050466382e-07,0.8,1.801448050466382e-07,0.8,1.801448050466382e-07,0.7935667836648976
1.801482822212487e-07,0.8,1.801482822212487e-07,0.8,1.801482822212487e-07,0.796971676681577
1.801528603768801e-07,0.8,1.801528603768801e-07,0.8,1.801528603768801e-07,0.7987947788839999
1.80159026918013e-07,0.8,1.80159026918013e-07,0.8,1.80159026918013e-07,0.7996330144767049
1.801676392268993e-07,0.8,1.801676392268993e-07,0.8,1.801676392268993e-07,0.7999351530588872
1.801785244790367e-07,0.8,1.801785244790367e-07,0.8,1.801785244790367e-07,0.799993415705162
1.801940993555443e-07,0.8,1.801940993555443e-07,0.8,1.801940993555443e-07,0.7999983995233676
1.802197283705569e-07,0.8,1.802197283705569e-07,0.8,1.802197283705569e-07,0.8000002103032366
1.802635355618053e-07,0.8,1.802635355618053e-07,0.8,1.802635355618053e-07,0.7999995865343468
1.803223220572411e-07,0.8,1.803223220572411e-07,0.8,1.803223220572411e-07,0.8000002491128735
1.803987602470689e-07,0.8,1.803987602470689e-07,0.8,1.803987602470689e-07,0.799999647969757
1.804543801235344e-07,0.8,1.804543801235344e-07,0.8,1.804543801235344e-07,0.800000244741765
1.8051e-07,0.8,1.8051e-07,0.8,1.8051e-07,0.7999996664437738
1.80510009765625e-07,0.8,1.80510009765625e-07,0.7992187499970916,1.80510009765625e-07,0.7999979959948028
1.805100292968751e-07,0.8,1.805100292968751e-07,0.7976562499948647,1.805100292968751e-07,0.7999915618342941
1.805100683593751e-07,0.8,1.805100683593751e-07,0.7945312499904109,1.805100683593751e-07,0.7999721825402469
1.805101394804271e-07,0.8,1.805101394804271e-07,0.7888415658315329,1.805101394804271e-07,0.7999322754113274
1.805101625646347e-07,0.8,1.805101625646347e-07,0.7869948292235981,1.805101625646347e-07,0.7999199982077977
1.805102087330499e-07,0.8,1.805102087330499e-07,0.7833013560077283,1.805102087330499e-07,0.7998971393790842
1.805103010698803e-07,0.8,1.805103010698803e-07,0.7759144095759889,1.805103010698803e-07,0.7998528453673357
1.805104640016438e-07,0.8,1.805104640016438e-07,0.7628798684972127,1.805104640016438e-07,0.7997815865698746
1.805107898651708e-07,0.8,1.805107898651708e-07,0.7368107863396605,1.805107898651708e-07,0.7996609255200466
1.805114415922247e-07,0.8,1.805114415922247e-07,0.6846726220245558,1.805114415922247e-07,0.7994938529698161
1.805127450463326e-07,0.8,1.805127450463326e-07,0.5803962933943467,1.805127450463326e-07,0.7993610340764373
1.805151615633837e-07,0.8,1.805151615633837e-07,0.3870749293003773,1.805151615633837e-07,0.7994599469299056
1.805175807816919e-07,0.8,1.805175807816919e-07,0.1935374646488376,1.805175807816919e-07,0.7996765837455618
1.80518790390846e-07,0.8,1.80518790390846e-07,0.096768732322009,1.80518790390846e-07,0.7998349208272376
1.8052e-07,0.8,1.8052e-07,0,1.8052e-07,0.7999263803206839
1.805200849598151e-07,0.8,1.805200849598151e-07,0,1.805200849598151e-07,0.8000000064118425
1.805202548794451e-07,0.8,1.805202548794451e-07,0,1.805202548794451e-07,0.8001654556827096
1.805203398392601e-07,0.8,1.805203398392601e-07,0,1.805203398392601e-07,0.8002470032106705
1.805205097588902e-07,0.8,1.805205097588902e-07,0,1.805205097588902e-07,0.8003870438732028
1.805208130232266e-07,0.8,1.805208130232266e-07,0,1.805208130232266e-07,0.8005977447939222
1.805212497346062e-07,0.8,1.805212497346062e-07,0,1.805212497346062e-07,0.8008150369868995
1.805221231573654e-07,0.8,1.805221231573654e-07,0,1.805221231573654e-07,0.8010342453773025
1.805225481722036e-07,0.8,1.805225481722036e-07,0,1.805225481722036e-07,0.8010486978472544
