;Version, 1, 0
;/D,;/CLK,;/QB
;X, Y,;X, Y,;X, Y
;Re, Re,;Re, Re,;Re, Re
;time, V,;time, V,;time, V
;s, V,;s, V,;s, V
0,0,0,0,0,0.7999999557616347
9.765624999999999e-15,0.00078125,9.765624999999999e-15,0,9.765624999999999e-15,0.8000012678515885
2.9296875e-14,0.00234375,2.9296875e-14,0,2.9296875e-14,0.8000080706665772
6.8359375e-14,0.005468750000000001,6.8359375e-14,0,6.8359375e-14,0.8000269858508851
1.257291705626227e-13,0.01005833364500982,1.257291705626227e-13,0,1.257291705626227e-13,0.8000611410598902
2.404687616878682e-13,0.01923750093502945,2.404687616878682e-13,0,2.404687616878682e-13,0.8001259025293489
3.888671267103318e-13,0.03110937013682655,3.888671267103318e-13,0,3.888671267103318e-13,0.8002040544982095
6.802461085241223e-13,0.05441968868192979,6.802461085241223e-13,0,6.802461085241223e-13,0.8004145291336213
1.250272160843582e-12,0.1000217728674866,1.250272160843582e-12,0,1.250272160843582e-12,0.8006332709615114
2.275133120665132e-12,0.1820106496532106,2.275133120665132e-12,0,2.275133120665132e-12,0.8007893905849713
4.284251584120357e-12,0.3427401267296286,4.284251584120357e-12,0,4.284251584120357e-12,0.800593971479847
7.239625367244475e-12,0.5791700293795581,7.239625367244475e-12,0,7.239625367244475e-12,0.8000276595419373
8.619812683622238e-12,0.6895850146897791,8.619812683622238e-12,0,8.619812683622238e-12,0.7999161080585615
9.999999999999999e-12,0.8,9.999999999999999e-12,0,9.999999999999999e-12,0.799836041832238
1.010625503506351e-11,0.8,1.010625503506351e-11,0,1.010625503506351e-11,0.7997969435127348
1.015938255259527e-11,0.8,1.015938255259527e-11,0,1.015938255259527e-11,0.7997762185140576
1.026563758765878e-11,0.8,1.026563758765878e-11,0,1.026563758765878e-11,0.7997357039707579
1.04781476577858e-11,0.8,1.04781476577858e-11,0,1.04781476577858e-11,0.7996633133810984
1.082758121130112e-11,0.8,1.082758121130112e-11,0,1.082758121130112e-11,0.7995676537125671
1.152644831833175e-11,0.8,1.152644831833175e-11,0,1.152644831833175e-11,0.799448872202168
1.292418253239301e-11,0.8,1.292418253239301e-11,0,1.292418253239301e-11,0.7993815220269495
1.515529535636829e-11,0.8,1.515529535636829e-11,0,1.515529535636829e-11,0.7994944805061354
1.798699125577797e-11,0.8,1.798699125577797e-11,0,1.798699125577797e-11,0.7997184230752843
2.12046129115675e-11,0.8,2.12046129115675e-11,0,2.12046129115675e-11,0.7998906011593104
2.514541088323943e-11,0.8,2.514541088323943e-11,0,2.514541088323943e-11,0.7999901189920581
3.124409928451726e-11,0.8,3.124409928451726e-11,0,3.124409928451726e-11,0.8000469848058331
3.939020950197825e-11,0.8,3.939020950197825e-11,0,3.939020950197825e-11,0.8000898963807528
4.610032294645821e-11,0.8,4.610032294645821e-11,0,4.610032294645821e-11,0.8001668566003157
5.235326861809359e-11,0.8,5.235326861809359e-11,0,5.235326861809359e-11,0.8001739725226672
5.93970971229207e-11,0.8,5.93970971229207e-11,0,5.93970971229207e-11,0.8001076772380572
6.508756602222046e-11,0.8,6.508756602222046e-11,0,6.508756602222046e-11,0.8000385576157615
6.960076341420655e-11,0.8,6.960076341420655e-11,0,6.960076341420655e-11,0.8000454856652618
7.505110057615966e-11,0.8,7.505110057615966e-11,0,7.505110057615966e-11,0.8000907674219989
8.061617847937283e-11,0.8,8.061617847937283e-11,0,8.061617847937283e-11,0.8000561720110503
8.655422057442452e-11,0.8,8.655422057442452e-11,0,8.655422057442452e-11,0.7998649985003468
9.140768593684429e-11,0.8,9.140768593684429e-11,0,9.140768593684429e-11,0.799614606933218
9.613341959542982e-11,0.8,9.613341959542982e-11,0,9.613341959542982e-11,0.799424095723157
1.00917451025612e-10,0.8,1.00917451025612e-10,0,1.00917451025612e-10,0.7993982397271738
1.057893182429232e-10,0.8,1.057893182429232e-10,0,1.057893182429232e-10,0.7994736638470262
1.113206971571923e-10,0.8,1.113206971571923e-10,0,1.113206971571923e-10,0.7996056208586092
1.186016728451724e-10,0.8,1.186016728451724e-10,0,1.186016728451724e-10,0.799802726363964
1.281588158247024e-10,0.8,1.281588158247024e-10,0,1.281588158247024e-10,0.8000859658527282
1.407728382886006e-10,0.8,1.407728382886006e-10,0,1.407728382886006e-10,0.8003121306577974
1.533906912046706e-10,0.8,1.533906912046706e-10,0,1.533906912046706e-10,0.8001859891208439
1.628470466866939e-10,0.8,1.628470466866939e-10,0,1.628470466866939e-10,0.8001931501216785
1.708949296527501e-10,0.8,1.708949296527501e-10,0,1.708949296527501e-10,0.8002361292360862
1.794753053130563e-10,0.8,1.794753053130563e-10,0,1.794753053130563e-10,0.800198425698764
1.863665017970448e-10,0.8,1.863665017970448e-10,0,1.863665017970448e-10,0.8001477211402712
1.913091866511089e-10,0.8,1.913091866511089e-10,0,1.913091866511089e-10,0.8000998593026836
1.965899360826363e-10,0.8,1.965899360826363e-10,0,1.965899360826363e-10,0.8001006810282282
2.022679577039469e-10,0.8,2.022679577039469e-10,0,2.022679577039469e-10,0.8001510955030864
2.076476711355022e-10,0.8,2.076476711355022e-10,0,2.076476711355022e-10,0.8001388708538405
2.131270865613699e-10,0.8,2.131270865613699e-10,0,2.131270865613699e-10,0.8000685174826678
2.173309857552343e-10,0.8,2.173309857552343e-10,0,2.173309857552343e-10,0.8000304228588266
2.231968882187404e-10,0.8,2.231968882187404e-10,0,2.231968882187404e-10,0.7999869263247351
2.293630353651723e-10,0.8,2.293630353651723e-10,0,2.293630353651723e-10,0.7999517096308155
2.37545457041592e-10,0.8,2.37545457041592e-10,0,2.37545457041592e-10,0.7999334335619248
2.485540779991266e-10,0.8,2.485540779991266e-10,0,2.485540779991266e-10,0.7999255824933759
2.622021947106419e-10,0.8,2.622021947106419e-10,0,2.622021947106419e-10,0.7999452461379729
2.793845658105073e-10,0.8,2.793845658105073e-10,0,2.793845658105073e-10,0.7999655699445777
3.014465999166705e-10,0.8,3.014465999166705e-10,0,3.014465999166705e-10,0.7999856343267679
3.303133546518252e-10,0.8,3.303133546518252e-10,0,3.303133546518252e-10,0.7999914963510857
3.679608166727172e-10,0.8,3.679608166727172e-10,0,3.679608166727172e-10,0.7999973848319448
4.171228725633077e-10,0.8,4.171228725633077e-10,0,4.171228725633077e-10,0.7999975028064334
4.815170595481755e-10,0.8,4.815170595481755e-10,0,4.815170595481755e-10,0.7999995577145044
5.457585297740877e-10,0.8,5.457585297740877e-10,0,5.457585297740877e-10,0.7999989637865539
6.1e-10,0.8,6.1e-10,0,6.1e-10,0.7999998987673084
6.10009765625e-10,0.799218749999995,6.10009765625e-10,0,6.10009765625e-10,0.7999991038283563
6.100292968750001e-10,0.797656249999985,6.100292968750001e-10,0,6.100292968750001e-10,0.7999960307774356
6.100683593750004e-10,0.7945312499999649,6.100683593750004e-10,0,6.100683593750004e-10,0.7999865466214398
6.101409311455995e-10,0.7887255083520387,6.101409311455995e-10,0,6.101409311455995e-10,0.7999695625189255
6.10234032295496e-10,0.7812774163603148,6.10234032295496e-10,0,6.10234032295496e-10,0.7999494480786005
6.104202345952891e-10,0.7663812323768668,6.104202345952891e-10,0,6.104202345952891e-10,0.7999129962203232
6.107926391948753e-10,0.7365888644099712,6.107926391948753e-10,0,6.107926391948753e-10,0.7998587156715786
6.115374483940477e-10,0.6770041284761799,6.115374483940477e-10,0,6.115374483940477e-10,0.7997802119841236
6.128238613112068e-10,0.5740910951034541,6.128238613112068e-10,0,6.128238613112068e-10,0.7997503002211941
6.153966871455249e-10,0.368265028358003,6.153966871455249e-10,0,6.153966871455249e-10,0.7998193008926163
6.176983435727624e-10,0.1841325141790029,6.176983435727624e-10,0,6.176983435727624e-10,0.7999513892481928
6.199999999999999e-10,0,6.199999999999999e-10,0,6.199999999999999e-10,0.800289101823233
6.201339926480569e-10,0,6.201339926480569e-10,0,6.201339926480569e-10,0.8003650418164576
6.204019779441709e-10,0,6.204019779441709e-10,0,6.204019779441709e-10,0.8005035442189893
6.205359705922279e-10,0,6.205359705922279e-10,0,6.205359705922279e-10,0.8005623519343172
6.208039558883418e-10,0,6.208039558883418e-10,0,6.208039558883418e-10,0.8006544067737542
6.213106695848763e-10,0,6.213106695848763e-10,0,6.213106695848763e-10,0.8007767499452351
6.214843503114659e-10,0,6.214843503114659e-10,0,6.214843503114659e-10,0.8008102560253698
6.218317117646452e-10,0,6.218317117646452e-10,0,6.218317117646452e-10,0.8008480361637486
6.225264346710037e-10,0,6.225264346710037e-10,0,6.225264346710037e-10,0.8008732498019859
6.237035268197661e-10,0,6.237035268197661e-10,0,6.237035268197661e-10,0.8008170434139702
6.242920728941474e-10,0,6.242920728941474e-10,0,6.242920728941474e-10,0.800762473879618
6.2546916504291e-10,0,6.2546916504291e-10,0,6.2546916504291e-10,0.8006378439786308
6.278233493404352e-10,0,6.278233493404352e-10,0,6.278233493404352e-10,0.8004049700008024
6.320044339099372e-10,0,6.320044339099372e-10,0,6.320044339099372e-10,0.8001314557264134
6.372848300223972e-10,0,6.372848300223972e-10,0,6.372848300223972e-10,0.7999435998055252
6.433192322411607e-10,0,6.433192322411607e-10,0,6.433192322411607e-10,0.7998282403679056
6.481237625406682e-10,0,6.481237625406682e-10,0,6.481237625406682e-10,0.7997874717242092
6.529458296720708e-10,0,6.529458296720708e-10,0,6.529458296720708e-10,0.7998496072425294
6.581167096377236e-10,0,6.581167096377236e-10,0,6.581167096377236e-10,0.8000338501106494
6.629864850324187e-10,0,6.629864850324187e-10,0,6.629864850324187e-10,0.8002986215987588
6.678933783431453e-10,0,6.678933783431453e-10,0,6.678933783431453e-10,0.8005489704457734
6.7380711730676e-10,0,6.7380711730676e-10,0,6.7380711730676e-10,0.8009259891645074
6.794975651603219e-10,0,6.794975651603219e-10,0,6.794975651603219e-10,0.8013837191409764
6.854540510581136e-10,0,6.854540510581136e-10,0,6.854540510581136e-10,0.8016853600842272
6.916969519982504e-10,0,6.916969519982504e-10,0,6.916969519982504e-10,0.8014012876941872
6.977188750807116e-10,0,6.977188750807116e-10,0,6.977188750807116e-10,0.8006230577448371
7.029953189438633e-10,0,7.029953189438633e-10,0,7.029953189438633e-10,0.7997158358665931
7.077923386131301e-10,0,7.077923386131301e-10,0,7.077923386131301e-10,0.7989689167102719
7.138671044786256e-10,0,7.138671044786256e-10,0,7.138671044786256e-10,0.7985395337293912
7.185414566886922e-10,0,7.185414566886922e-10,0,7.185414566886922e-10,0.7986322340596819
7.243307838754733e-10,0,7.243307838754733e-10,0,7.243307838754733e-10,0.7989475965908566
7.319798614468023e-10,0,7.319798614468023e-10,0,7.319798614468023e-10,0.7993521012884108
7.38970838979996e-10,0,7.38970838979996e-10,0,7.38970838979996e-10,0.7995861552313682
7.470576466324674e-10,0,7.470576466324674e-10,0,7.470576466324674e-10,0.7997405221541336
7.570719785573785e-10,0,7.570719785573785e-10,0,7.570719785573785e-10,0.799867039106854
7.703222590194304e-10,0,7.703222590194304e-10,0,7.703222590194304e-10,0.7999460377044807
7.824721923976471e-10,0,7.824721923976471e-10,0,7.824721923976471e-10,0.7999711254659195
7.94000961873619e-10,0,7.94000961873619e-10,0,7.94000961873619e-10,0.7999840526094223
8.073929205943339e-10,0,8.073929205943339e-10,0,8.073929205943339e-10,0.7999922485272896
8.264098145132959e-10,0,8.264098145132959e-10,0,8.264098145132959e-10,0.7999971586478898
8.559100828325352e-10,0,8.559100828325352e-10,0,8.559100828325352e-10,0.7999997246401307
9.051558593542655e-10,0,9.051558593542655e-10,0,9.051558593542655e-10,0.7999998808532547
1.003647412397726e-09,0,1.003647412397726e-09,0,1.003647412397726e-09,0.8000000780077129
1.2e-09,0,1.2e-09,0,1.2e-09,0.7999998381352207
1.2000390625e-09,0.003125000000003544,1.2000390625e-09,0,1.2000390625e-09,0.800014805531009
1.2001171875e-09,0.009375000000010632,1.2001171875e-09,0,1.2001171875e-09,0.8000568345208448
1.20015625e-09,0.01250000000001418,1.20015625e-09,0,1.20015625e-09,0.8000813240523972
1.200234375e-09,0.01875000000002126,1.200234375e-09,0,1.200234375e-09,0.8001246132729682
1.200382448803778e-09,0.03059590430224311,1.200382448803778e-09,0,1.200382448803778e-09,0.8002025702944094
1.200649325323642e-09,0.05194602589139712,1.200649325323642e-09,0,1.200649325323642e-09,0.8004024713362523
1.201183078363371e-09,0.09464626906970515,1.201183078363371e-09,0,1.201183078363371e-09,0.8006178943322616
1.202250584442829e-09,0.1800467554263212,1.202250584442829e-09,0,1.202250584442829e-09,0.8007936083920568
1.204205203185782e-09,0.3364162548625234,1.204205203185782e-09,0,1.204205203185782e-09,0.8006100645875426
1.207446534021083e-09,0.5957227216866079,1.207446534021083e-09,0,1.207446534021083e-09,0.7999986779042075
1.21e-09,0.7999999999999973,1.21e-09,0,1.21e-09,0.7998271104780095
1.210155828731608e-09,0.8,1.210155828731608e-09,0,1.210155828731608e-09,0.7997719961471353
1.210467486194823e-09,0.8,1.210467486194823e-09,0,1.210467486194823e-09,0.7996617724916162
1.211090801121255e-09,0.8,1.211090801121255e-09,0,1.211090801121255e-09,0.7995094170852236
1.211697738791779e-09,0.8,1.211697738791779e-09,0,1.211697738791779e-09,0.799427854561697
1.212911614132827e-09,0.8,1.212911614132827e-09,0,1.212911614132827e-09,0.7993818503487083
1.213498559960421e-09,0.8,1.213498559960421e-09,0,1.213498559960421e-09,0.7993992171777116
1.214672451615609e-09,0.8,1.214672451615609e-09,0,1.214672451615609e-09,0.7994682525933869
1.215259397443203e-09,0.8,1.215259397443203e-09,0,1.215259397443203e-09,0.7995155957023163
1.21643328909839e-09,0.8,1.21643328909839e-09,0,1.21643328909839e-09,0.7996088660460385
1.218781072408766e-09,0.8,1.218781072408766e-09,0,1.218781072408766e-09,0.7997700176774903
1.222667001060414e-09,0.8,1.222667001060414e-09,0,1.222667001060414e-09,0.7999355526261972
1.228461924050357e-09,0.8,1.228461924050357e-09,0,1.228461924050357e-09,0.8000296534017747
1.235967096020694e-09,0.8,1.235967096020694e-09,0,1.235967096020694e-09,0.8000567378985215
1.244181424753395e-09,0.8,1.244181424753395e-09,0,1.244181424753395e-09,0.8001098393708775
1.251137906215301e-09,0.8,1.251137906215301e-09,0,1.251137906215301e-09,0.8001795923065311
1.25823542198395e-09,0.8,1.25823542198395e-09,0,1.25823542198395e-09,0.8001421734246855
1.267543789773743e-09,0.8,1.267543789773743e-09,0,1.267543789773743e-09,0.8001166048240028
1.274247518641009e-09,0.8,1.274247518641009e-09,0,1.274247518641009e-09,0.8001138051924128
1.280976321958216e-09,0.8,1.280976321958216e-09,0,1.280976321958216e-09,0.7999852417485326
1.287012499437917e-09,0.8,1.287012499437917e-09,0,1.287012499437917e-09,0.7997161818107676
1.291861988678673e-09,0.8,1.291861988678673e-09,0,1.291861988678673e-09,0.7994676472132188
1.297282497520682e-09,0.8,1.297282497520682e-09,0,1.297282497520682e-09,0.7993736158764543
1.303079549813952e-09,0.8,1.303079549813952e-09,0,1.303079549813952e-09,0.7994499796549511
1.308437998084209e-09,0.8,1.308437998084209e-09,0,1.308437998084209e-09,0.7995823529000077
1.3154362743291e-09,0.8,1.3154362743291e-09,0,1.3154362743291e-09,0.7997725350896047
1.32499354276664e-09,0.8,1.32499354276664e-09,0,1.32499354276664e-09,0.800055807707423
1.337709786900626e-09,0.8,1.337709786900626e-09,0,1.337709786900626e-09,0.8003128230288217
1.351086732757448e-09,0.8,1.351086732757448e-09,0,1.351086732757448e-09,0.8001875913277307
1.360973335575035e-09,0.8,1.360973335575035e-09,0,1.360973335575035e-09,0.8001954812909893
1.369367235136363e-09,0.8,1.369367235136363e-09,0,1.369367235136363e-09,0.8002312364447183
1.378375882970149e-09,0.8,1.378375882970149e-09,0,1.378375882970149e-09,0.8001960639692072
1.385096446024628e-09,0.8,1.385096446024628e-09,0,1.385096446024628e-09,0.8001372120721169
1.39033783092838e-09,0.8,1.39033783092838e-09,0,1.39033783092838e-09,0.8000954036305149
1.395699405819761e-09,0.8,1.395699405819761e-09,0,1.395699405819761e-09,0.8001078901266678
1.401341327013801e-09,0.8,1.401341327013801e-09,0,1.401341327013801e-09,0.800160383389694
1.407403266005117e-09,0.8,1.407403266005117e-09,0,1.407403266005117e-09,0.8001139648284769
1.412347477160609e-09,0.8,1.412347477160609e-09,0,1.412347477160609e-09,0.8000532551703059
1.417024919234476e-09,0.8,1.417024919234476e-09,0,1.417024919234476e-09,0.8000156003074993
1.423101713079656e-09,0.8,1.423101713079656e-09,0,1.423101713079656e-09,0.7999730572209718
1.429674041897634e-09,0.8,1.429674041897634e-09,0,1.429674041897634e-09,0.799941079936401
1.439212037968585e-09,0.8,1.439212037968585e-09,0,1.439212037968585e-09,0.7999293715515238
1.45135115316092e-09,0.8,1.45135115316092e-09,0,1.45135115316092e-09,0.7999309437522787
1.466745607008713e-09,0.8,1.466745607008713e-09,0,1.466745607008713e-09,0.79995503135171
1.486159016349394e-09,0.8,1.486159016349394e-09,0,1.486159016349394e-09,0.7999743775784104
1.511609845962012e-09,0.8,1.511609845962012e-09,0,1.511609845962012e-09,0.799989969290373
1.544965317376801e-09,0.8,1.544965317376801e-09,0,1.544965317376801e-09,0.7999940689397077
1.588824426008682e-09,0.8,1.588824426008682e-09,0,1.588824426008682e-09,0.7999980521458656
1.646400957535916e-09,0.8,1.646400957535916e-09,0,1.646400957535916e-09,0.7999983423516959
1.722558421883703e-09,0.8,1.722558421883703e-09,0,1.722558421883703e-09,0.7999995666881108
1.81e-09,0.8,1.81e-09,0,1.81e-09,0.7999993266386025
1.8100390625e-09,0.7968749999999964,1.8100390625e-09,0,1.8100390625e-09,0.7999904252597378
1.8101171875e-09,0.7906249999999894,1.8101171875e-09,0,1.8101171875e-09,0.7999686899455489
1.81015625e-09,0.7874999999999859,1.81015625e-09,0,1.81015625e-09,0.7999572400773195
1.810234375e-09,0.7812499999999788,1.810234375e-09,0,1.810234375e-09,0.799936989505885
1.810390625e-09,0.7687499999999646,1.810390625e-09,0,1.810390625e-09,0.7998994540496313
1.810655101081451e-09,0.7475919134839419,1.810655101081451e-09,0,1.810655101081451e-09,0.7998514717218818
1.811184053244351e-09,0.7052757404518964,1.811184053244351e-09,0,1.811184053244351e-09,0.7997803625363984
1.812206590931476e-09,0.6234727254819088,1.812206590931476e-09,0,1.812206590931476e-09,0.7997661206808576
1.814250151051621e-09,0.4599879158703296,1.814250151051621e-09,0,1.814250151051621e-09,0.7997795317688241
1.817586380700776e-09,0.1930895439379352,1.817586380700776e-09,0,1.817586380700776e-09,0.7999488288369055
1.82e-09,0,1.82e-09,0,1.82e-09,0.8002855766921255
1.820147251737053e-09,0,1.820147251737053e-09,0,1.820147251737053e-09,0.8003676882768354
1.82044175521116e-09,0,1.82044175521116e-09,0,1.82044175521116e-09,0.8005163559328418
1.821030762159373e-09,0,1.821030762159373e-09,0,1.821030762159373e-09,0.80071349829445
1.821162889430228e-09,0,1.821162889430228e-09,0,1.821162889430228e-09,0.8007471356199575
1.82142714397194e-09,0,1.82142714397194e-09,0,1.82142714397194e-09,0.8007957545489816
1.821955653055363e-09,0,1.821955653055363e-09,0,1.821955653055363e-09,0.8008529413403139
1.822738347541094e-09,0,1.822738347541094e-09,0,1.822738347541094e-09,0.8008663857693521
1.82312969478396e-09,0,1.82312969478396e-09,0,1.82312969478396e-09,0.8008501759697557
1.823912389269691e-09,0,1.823912389269691e-09,0,1.823912389269691e-09,0.8007935220001781
1.825477778241153e-09,0,1.825477778241153e-09,0,1.825477778241153e-09,0.800637081140948
1.828499541198221e-09,0,1.828499541198221e-09,0,1.828499541198221e-09,0.8003482070610752
1.832586706840938e-09,0,1.832586706840938e-09,0,1.832586706840938e-09,0.8001035225092684
1.838305455083689e-09,0,1.838305455083689e-09,0,1.838305455083689e-09,0.7999141589309997
1.844097423206696e-09,0,1.844097423206696e-09,0,1.844097423206696e-09,0.7998185375049178
1.848836286724178e-09,0,1.848836286724178e-09,0,1.848836286724178e-09,0.7997911353005034
1.853748841592684e-09,0,1.853748841592684e-09,0,1.853748841592684e-09,0.7998744452733569
1.858793647620801e-09,0,1.858793647620801e-09,0,1.858793647620801e-09,0.8000673881920621
1.863729007876474e-09,0,1.863729007876474e-09,0,1.863729007876474e-09,0.8003433094086346
1.868725789479802e-09,0,1.868725789479802e-09,0,1.868725789479802e-09,0.8006031012267819
1.874904264738079e-09,0,1.874904264738079e-09,0,1.874904264738079e-09,0.8010135983387083
1.880610073240182e-09,0,1.880610073240182e-09,0,1.880610073240182e-09,0.8014703674722558
1.886782047752681e-09,0,1.886782047752681e-09,0,1.886782047752681e-09,0.8016865782990569
1.893086204003561e-09,0,1.893086204003561e-09,0,1.893086204003561e-09,0.8012444204936274
1.898782184131764e-09,0,1.898782184131764e-09,0,1.898782184131764e-09,0.8004401169457652
1.903841471690761e-09,0,1.903841471690761e-09,0,1.903841471690761e-09,0.7995623406711634
