/CK X,/CK Y,/D X,/D Y,/QD X,/QD Y
0,0,0,0,0,4.910393769411801e-08
9.765624999999999e-15,0,9.765624999999999e-15,0.00078125,9.765624999999999e-15,4.937388105806451e-08
2.9296875e-14,0,2.9296875e-14,0.00234375,2.9296875e-14,5.074628339843011e-08
6.8359375e-14,0,6.8359375e-14,0.005468750000000001,6.8359375e-14,5.391454450706936e-08
1.254567070059807e-13,0,1.254567070059807e-13,0.01003653656047846,1.254567070059807e-13,5.837255907320831e-08
2.396513710179422e-13,0,2.396513710179422e-13,0.01917210968143538,2.396513710179422e-13,7.086445648661233e-08
3.791716811870243e-13,0,3.791716811870243e-13,0.03033373449496194,3.791716811870243e-13,8.549684820837543e-08
6.582123015251884e-13,0,6.582123015251884e-13,0.05265698412201508,6.582123015251884e-13,1.042577837035491e-07
1.216293542201517e-12,0,1.216293542201517e-12,0.09730348337612132,1.216293542201517e-12,1.295642363035851e-07
2.332456023554173e-12,0,2.332456023554173e-12,0.1865964818843339,2.332456023554173e-12,1.387438309431757e-07
4.128562189767971e-12,0,4.128562189767971e-12,0.3302849751814377,4.128562189767971e-12,9.946529088129079e-08
7.287286106323578e-12,0,7.287286106323578e-12,0.5829828885058863,7.287286106323578e-12,-3.012670082302026e-08
8.643643053161788e-12,0,8.643643053161788e-12,0.6914914442529431,8.643643053161788e-12,-5.278840655182427e-08
9.999999999999999e-12,0,9.999999999999999e-12,0.8,9.999999999999999e-12,-6.623468681951341e-08
1.009711678314537e-11,0,1.009711678314537e-11,0.8,1.009711678314537e-11,-7.146085981868214e-08
1.014567517471805e-11,0,1.014567517471805e-11,0.8,1.014567517471805e-11,-7.423265726978628e-08
1.024279195786342e-11,0,1.024279195786342e-11,0.8,1.024279195786342e-11,-7.924438091027029e-08
1.043702552415416e-11,0,1.043702552415416e-11,0.8,1.043702552415416e-11,-8.687270318790335e-08
1.07335087487877e-11,0,1.07335087487877e-11,0.8,1.07335087487877e-11,-9.405227897478111e-08
1.088175036110447e-11,0,1.088175036110447e-11,0.8,1.088175036110447e-11,-9.561081841547936e-08
1.117823358573801e-11,0,1.117823358573801e-11,0.8,1.117823358573801e-11,-9.603057125358197e-08
1.177120003500509e-11,0,1.177120003500509e-11,0.8,1.177120003500509e-11,-8.269151874667669e-08
1.295713293353924e-11,0,1.295713293353924e-11,0.8,1.295713293353924e-11,-4.370460684225081e-08
1.43481906602775e-11,0,1.43481906602775e-11,0.8,1.43481906602775e-11,1.61286518031474e-08
1.605075825086283e-11,0,1.605075825086283e-11,0.8,1.605075825086283e-11,8.219628236817054e-08
1.811682645095588e-11,0,1.811682645095588e-11,0.8,1.811682645095588e-11,1.216416336004387e-07
2.076340192441908e-11,0,2.076340192441908e-11,0.8,2.076340192441908e-11,1.285325343108937e-07
2.418981169854077e-11,0,2.418981169854077e-11,0.8,2.418981169854077e-11,1.010238937862914e-07
2.889719861185658e-11,0,2.889719861185658e-11,0.8,2.889719861185658e-11,5.75220751087293e-08
3.582204557409247e-11,0,3.582204557409247e-11,0.8,3.582204557409247e-11,3.237025761789284e-08
4.370938574619094e-11,0,4.370938574619094e-11,0.8,4.370938574619094e-11,4.607674322825519e-08
5.191623846539643e-11,0,5.191623846539643e-11,0.8,5.191623846539643e-11,4.857463149445797e-08
5.788557656995878e-11,0,5.788557656995878e-11,0.8,5.788557656995878e-11,4.214838577860695e-08
6.266130737400224e-11,0,6.266130737400224e-11,0.8,6.266130737400224e-11,4.497221463849248e-08
6.752862037167403e-11,0,6.752862037167403e-11,0.8,6.752862037167403e-11,4.914402244274684e-08
7.085018689193859e-11,0,7.085018689193859e-11,0.8,7.085018689193859e-11,8.270979718534069e-08
7.45400589266158e-11,0,7.45400589266158e-11,0.8,7.45400589266158e-11,2.920876698412197e-07
7.742522009836825e-11,0,7.742522009836825e-11,0.8,7.742522009836825e-11,5.896420596388697e-07
8.068025965436489e-11,0,8.068025965436489e-11,0.8,8.068025965436489e-11,5.019269080171625e-07
8.369470780984784e-11,0,8.369470780984784e-11,0.8,8.369470780984784e-11,1.12063235430126e-07
8.694407029209049e-11,0,8.694407029209049e-11,0.8,8.694407029209049e-11,-2.559326366756149e-07
9.045609103500457e-11,0,9.045609103500457e-11,0.8,9.045609103500457e-11,-4.331732244415809e-07
9.534038227603648e-11,0,9.534038227603648e-11,0.8,9.534038227603648e-11,-5.159474919472911e-07
1.012198869234142e-10,0,1.012198869234142e-10,0.8,1.012198869234142e-10,-2.772264135450368e-07
1.068490136484233e-10,0,1.068490136484233e-10,0.8,1.068490136484233e-10,7.753360029337407e-08
1.119188262133898e-10,0,1.119188262133898e-10,0.8,1.119188262133898e-10,1.349892425167948e-07
1.155777875718615e-10,0,1.155777875718615e-10,0.8,1.155777875718615e-10,1.499178463425199e-07
1.194146068883454e-10,0,1.194146068883454e-10,0.8,1.194146068883454e-10,2.323942232226636e-07
1.231549781678144e-10,0,1.231549781678144e-10,0.8,1.231549781678144e-10,2.860625639797274e-07
1.284505523290841e-10,0,1.284505523290841e-10,0.8,1.284505523290841e-10,2.510267546158125e-07
1.337133473042958e-10,0,1.337133473042958e-10,0.8,1.337133473042958e-10,1.709918835525407e-07
1.406029663529316e-10,0,1.406029663529316e-10,0.8,1.406029663529316e-10,8.451963998528448e-08
1.495196554758363e-10,0,1.495196554758363e-10,0.8,1.495196554758363e-10,3.305556798940056e-08
1.60587135849377e-10,0,1.60587135849377e-10,0.8,1.60587135849377e-10,1.88744301908886e-08
1.739937939198233e-10,0,1.739937939198233e-10,0.8,1.739937939198233e-10,2.950449317448599e-08
1.911164257925026e-10,0,1.911164257925026e-10,0.8,1.911164257925026e-10,4.237572565149209e-08
2.146911393351765e-10,0,2.146911393351765e-10,0.8,2.146911393351765e-10,4.910052311075143e-08
2.504399643098225e-10,0,2.504399643098225e-10,0.8,2.504399643098225e-10,4.888166332766164e-08
3.132652661876843e-10,0,3.132652661876843e-10,0.8,3.132652661876843e-10,4.937182072693798e-08
4.121989812948941e-10,0,4.121989812948941e-10,0.8,4.121989812948941e-10,4.881688792051269e-08
5.11099490647447e-10,0,5.11099490647447e-10,0.8,5.11099490647447e-10,4.940565615382377e-08
6.1e-10,0,6.1e-10,0.8,6.1e-10,4.879072728067178e-08
6.100390625e-10,0,6.100390625e-10,0.7968749999999964,6.100390625e-10,4.726984374387959e-08
6.101171875000001e-10,0,6.101171875000001e-10,0.7906249999999894,6.101171875000001e-10,4.306685722616504e-08
6.101562500000001e-10,0,6.101562500000001e-10,0.7874999999999859,6.101562500000001e-10,4.094011097813111e-08
6.102343750000002e-10,0,6.102343750000002e-10,0.7812499999999788,6.102343750000002e-10,3.732998314630796e-08
6.103895260418302e-10,0,6.103895260418302e-10,0.7688379166535801,6.103895260418302e-10,3.037968749399497e-08
6.106307801269172e-10,0,6.106307801269172e-10,0.7495375898466238,6.106307801269172e-10,2.849966480890131e-08
6.111132882970911e-10,0,6.111132882970911e-10,0.7109369362327109,6.111132882970911e-10,1.778548471098978e-08
6.119085253302084e-10,0,6.119085253302084e-10,0.6473179735833261,6.119085253302084e-10,1.053562901586628e-08
6.132825615374713e-10,0,6.132825615374713e-10,0.5373950770022926,6.132825615374713e-10,1.611745949656515e-08
6.150091059569541e-10,0,6.150091059569541e-10,0.3992715234436725,6.150091059569541e-10,3.097172170082169e-08
6.17504552978477e-10,0,6.17504552978477e-10,0.1996357617218376,6.17504552978477e-10,6.117675485865583e-08
6.187522764892385e-10,0,6.187522764892385e-10,0.09981788086092014,6.187522764892385e-10,6.676777111368942e-08
6.199999999999999e-10,0,6.199999999999999e-10,0,6.199999999999999e-10,7.288019867255817e-08
6.200691553295883e-10,0,6.200691553295883e-10,0,6.200691553295883e-10,7.640171629817578e-08
6.202074659887651e-10,0,6.202074659887651e-10,0,6.202074659887651e-10,8.490116082342901e-08
6.202766213183535e-10,0,6.202766213183535e-10,0,6.202766213183535e-10,8.891810453311864e-08
6.204149319775303e-10,0,6.204149319775303e-10,0,6.204149319775303e-10,9.615747307631842e-08
6.206412318160034e-10,0,6.206412318160034e-10,0,6.206412318160034e-10,1.073597200607041e-07
6.209810919943939e-10,0,6.209810919943939e-10,0,6.209810919943939e-10,1.209191997402901e-07
6.21660812351175e-10,0,6.21660812351175e-10,0,6.21660812351175e-10,1.391211941029403e-07
6.23020253064737e-10,0,6.23020253064737e-10,0,6.23020253064737e-10,1.464754178864788e-07
6.247727038195636e-10,0,6.247727038195636e-10,0,6.247727038195636e-10,1.341935219714477e-07
6.269552976640103e-10,0,6.269552976640103e-10,0,6.269552976640103e-10,9.790224279609181e-08
6.292156186746162e-10,0,6.292156186746162e-10,0,6.292156186746162e-10,4.829815968427264e-08
6.310973381697487e-10,0,6.310973381697487e-10,0,6.310973381697487e-10,1.318733959302999e-08
6.331146871967494e-10,0,6.331146871967494e-10,0,6.331146871967494e-10,-8.599046039173222e-09
6.357002534640947e-10,0,6.357002534640947e-10,0,6.357002534640947e-10,-1.067725017686004e-08
6.395447074314089e-10,0,6.395447074314089e-10,0,6.395447074314089e-10,1.189040691101444e-08
6.452049764163539e-10,0,6.452049764163539e-10,0,6.452049764163539e-10,2.43399899815352e-08
6.516153636071022e-10,0,6.516153636071022e-10,0,6.516153636071022e-10,1.21257190404229e-09
6.568198503574366e-10,0,6.568198503574366e-10,0,6.568198503574366e-10,-3.685458592419155e-08
6.61890012632144e-10,0,6.61890012632144e-10,0,6.61890012632144e-10,8.500605582862132e-09
6.676873046899457e-10,0,6.676873046899457e-10,0,6.676873046899457e-10,1.003242790952693e-07
6.730766712497355e-10,0,6.730766712497355e-10,0,6.730766712497355e-10,1.514258137784326e-07
6.786164431529072e-10,0,6.786164431529072e-10,0,6.786164431529072e-10,1.225829655955478e-07
6.856695689747458e-10,0,6.856695689747458e-10,0,6.856695689747458e-10,5.752601275532585e-08
6.939746130056953e-10,0,6.939746130056953e-10,0,6.939746130056953e-10,2.064900538071276e-08
7.024032364735771e-10,0,7.024032364735771e-10,0,7.024032364735771e-10,7.75149039681572e-08
7.098474633495596e-10,0,7.098474633495596e-10,0,7.098474633495596e-10,1.19873981233513e-07
7.175568957364779e-10,0,7.175568957364779e-10,0,7.175568957364779e-10,1.257483068875666e-07
7.251526652196942e-10,0,7.251526652196942e-10,0,7.251526652196942e-10,1.411546592334851e-07
7.333567436656971e-10,0,7.333567436656971e-10,0,7.333567436656971e-10,-2.631735233451818e-08
7.432241678891567e-10,0,7.432241678891567e-10,0,7.432241678891567e-10,-1.641992988392699e-07
7.524746323298317e-10,0,7.524746323298317e-10,0,7.524746323298317e-10,-7.555645656681851e-09
7.610434429018933e-10,0,7.610434429018933e-10,0,7.610434429018933e-10,1.045020379926895e-07
7.711785339795216e-10,0,7.711785339795216e-10,0,7.711785339795216e-10,7.704810644994323e-08
7.85008640220308e-10,0,7.85008640220308e-10,0,7.85008640220308e-10,7.351963298864426e-08
8.053759586691102e-10,0,8.053759586691102e-10,0,8.053759586691102e-10,4.241782583616916e-08
8.365145263767981e-10,0,8.365145263767981e-10,0,8.365145263767981e-10,5.436879578391993e-08
8.864955368405239e-10,0,8.864955368405239e-10,0,8.864955368405239e-10,4.466641433229368e-08
9.498522029601773e-10,0,9.498522029601773e-10,0,9.498522029601773e-10,5.297517092603781e-08
1.033385454863597e-09,0,1.033385454863597e-09,0,1.033385454863597e-09,4.562334701915532e-08
1.116692727431798e-09,0,1.116692727431798e-09,0,1.116692727431798e-09,5.22272866968362e-08
1.2e-09,0,1.2e-09,0,1.2e-09,4.630558503168881e-08
1.2000390625e-09,0,1.2000390625e-09,0.003125000000003544,1.2000390625e-09,4.959888278617789e-08
1.2001171875e-09,0,1.2001171875e-09,0.009375000000010632,1.2001171875e-09,5.785753655842577e-08
1.20015625e-09,0,1.20015625e-09,0.01250000000001418,1.20015625e-09,6.207755853488247e-08
1.200234375e-09,0,1.200234375e-09,0.01875000000002126,1.200234375e-09,6.913103317610249e-08
1.200370371276881e-09,0,1.200370371276881e-09,0.02962970215050782,1.200370371276881e-09,8.086471883061691e-08
1.2006264903852e-09,0,1.2006264903852e-09,0.05011923081601027,1.2006264903852e-09,9.896109763796549e-08
1.201138728601838e-09,0,1.201138728601838e-09,0.09109828814701519,1.201138728601838e-09,1.297540666442248e-07
1.202163205035113e-09,0,1.202163205035113e-09,0.173056402809025,1.202163205035113e-09,1.436252626980514e-07
1.203843873751729e-09,0,1.203843873751729e-09,0.3075099001383107,1.203843873751729e-09,1.025857040709291e-07
1.206546324566559e-09,0,1.206546324566559e-09,0.5237059653246888,1.206546324566559e-09,-6.463236853804261e-09
1.208273162283279e-09,0,1.208273162283279e-09,0.6618529826623432,1.208273162283279e-09,-4.810747240240113e-08
1.21e-09,0,1.21e-09,0.7999999999999973,1.21e-09,-6.407325189014414e-08
1.210107183204676e-09,0,1.210107183204676e-09,0.8,1.210107183204676e-09,-6.891508493123695e-08
1.210321549614028e-09,0,1.210321549614028e-09,0.8,1.210321549614028e-09,-7.918833262199765e-08
1.210750282432731e-09,0,1.210750282432731e-09,0.8,1.210750282432731e-09,-9.047670256649417e-08
1.210856005653992e-09,0,1.210856005653992e-09,0.8,1.210856005653992e-09,-9.162331726124435e-08
1.211067452096514e-09,0,1.211067452096514e-09,0.8,1.211067452096514e-09,-9.225253318542504e-08
1.211490344981557e-09,0,1.211490344981557e-09,0.8,1.211490344981557e-09,-8.80834006412403e-08
1.211654228412051e-09,0,1.211654228412051e-09,0.8,1.211654228412051e-09,-8.497355889961192e-08
1.211981995273038e-09,0,1.211981995273038e-09,0.8,1.211981995273038e-09,-7.700153078312919e-08
1.212637528995014e-09,0,1.212637528995014e-09,0.8,1.212637528995014e-09,-5.490225382027585e-08
1.213933409945422e-09,0,1.213933409945422e-09,0.8,1.213933409945422e-09,-5.006782574292045e-10
1.21652517184624e-09,0,1.21652517184624e-09,0.8,1.21652517184624e-09,9.165396085381306e-08
1.220281899702873e-09,0,1.220281899702873e-09,0.8,1.220281899702873e-09,1.370263284224342e-07
1.225226207651914e-09,0,1.225226207651914e-09,0.8,1.225226207651914e-09,9.63809406298706e-08
1.232021242124069e-09,0,1.232021242124069e-09,0.8,1.232021242124069e-09,3.822192652547877e-08
1.240123117665169e-09,0,1.240123117665169e-09,0.8,1.240123117665169e-09,3.47263731280288e-08
1.249458689447101e-09,0,1.249458689447101e-09,0.8,1.249458689447101e-09,5.121336008399174e-08
1.256538544505673e-09,0,1.256538544505673e-09,0.8,1.256538544505673e-09,4.337342484925628e-08
1.261994357105265e-09,0,1.261994357105265e-09,0.8,1.261994357105265e-09,5.231583009741373e-08
1.267011604382564e-09,0,1.267011604382564e-09,0.8,1.267011604382564e-09,1.365652521670836e-07
1.270124530107519e-09,0,1.270124530107519e-09,0.8,1.270124530107519e-09,3.321360268071662e-07
1.273464927612936e-09,0,1.273464927612936e-09,0.8,1.273464927612936e-09,4.861659241673315e-07
1.276761547580451e-09,0,1.276761547580451e-09,0.8,1.276761547580451e-09,3.433443668234602e-07
1.28038013595289e-09,0,1.28038013595289e-09,0.8,1.28038013595289e-09,-2.934038970735004e-08
1.284226258521692e-09,0,1.284226258521692e-09,0.8,1.284226258521692e-09,-3.038031487212928e-07
1.288538744924419e-09,0,1.288538744924419e-09,0.8,1.288538744924419e-09,-4.536530056389585e-07
1.293989775711425e-09,0,1.293989775711425e-09,0.8,1.293989775711425e-09,-4.12356742788352e-07
1.299849913388208e-09,0,1.299849913388208e-09,0.8,1.299849913388208e-09,-3.791922962122046e-08
1.305803079620282e-09,0,1.305803079620282e-09,0.8,1.305803079620282e-09,1.047756085725344e-07
1.31166068836389e-09,0,1.31166068836389e-09,0.8,1.31166068836389e-09,1.268400825524271e-07
1.319115537301577e-09,0,1.319115537301577e-09,0.8,1.319115537301577e-09,2.637827093088703e-07
1.326073856603808e-09,0,1.326073856603808e-09,0.8,1.326073856603808e-09,2.719240270209457e-07
1.332683739406551e-09,0,1.332683739406551e-09,0.8,1.332683739406551e-09,1.359186087280223e-07
1.340888733527354e-09,0,1.340888733527354e-09,0.8,1.340888733527354e-09,4.634274502619201e-08
1.350885172100898e-09,0,1.350885172100898e-09,0.8,1.350885172100898e-09,1.592108078135707e-08
1.363275328275293e-09,0,1.363275328275293e-09,0.8,1.363275328275293e-09,2.195778414654639e-08
1.378828410580425e-09,0,1.378828410580425e-09,0.8,1.378828410580425e-09,3.821298176676763e-08
1.399657477929528e-09,0,1.399657477929528e-09,0.8,1.399657477929528e-09,4.73738017956995e-08
1.429870811392097e-09,0,1.429870811392097e-09,0.8,1.429870811392097e-09,4.946104274115043e-08
1.479461417160799e-09,0,1.479461417160799e-09,0.8,1.479461417160799e-09,4.887563794941536e-08
1.56803960154382e-09,0,1.56803960154382e-09,0.8,1.56803960154382e-09,4.930124259076483e-08
1.681128833241438e-09,0,1.681128833241438e-09,0.8,1.681128833241438e-09,4.892120677809604e-08
1.81e-09,0,1.81e-09,0.8,1.81e-09,4.927844647447452e-08
1.8100390625e-09,0,1.8100390625e-09,0.7968749999999964,1.8100390625e-09,4.721113754950055e-08
1.8101171875e-09,0,1.8101171875e-09,0.7906249999999894,1.8101171875e-09,4.276863659822178e-08
1.81015625e-09,0,1.81015625e-09,0.7874999999999859,1.81015625e-09,4.071738234057229e-08
1.810234375e-09,0,1.810234375e-09,0.7812499999999788,1.810234375e-09,3.70409975289597e-08
1.810390065128332e-09,0,1.810390065128332e-09,0.768794789733397,1.810390065128332e-09,3.507078548546962e-08
1.81063236484642e-09,0,1.81063236484642e-09,0.7494108122863687,1.81063236484642e-09,2.862043289549919e-08
1.811116964282596e-09,0,1.811116964282596e-09,0.7106428573923125,1.811116964282596e-09,1.793639240061259e-08
1.812060959371073e-09,0,1.812060959371073e-09,0.635123250314185,1.812060959371073e-09,7.595643498667455e-09
1.813524162689248e-09,0,1.813524162689248e-09,0.5180669848601391,1.813524162689248e-09,9.926911654881788e-09
1.815361682499006e-09,0,1.815361682499006e-09,0.3710654000795029,1.815361682499006e-09,3.595263287282494e-08
1.817072203046681e-09,0,1.817072203046681e-09,0.2342237562655137,1.817072203046681e-09,5.72246454089696e-08
1.818536101523341e-09,0,1.818536101523341e-09,0.1171118781327499,1.818536101523341e-09,6.865739055665588e-08
1.81926805076167e-09,0,1.81926805076167e-09,0.05855593906637635,1.81926805076167e-09,7.128370890916372e-08
1.82e-09,0,1.82e-09,0,1.82e-09,7.730879792859518e-08
1.82007014970283e-09,0,1.82007014970283e-09,0,1.82007014970283e-09,8.097938193041998e-08
1.820105224554246e-09,0,1.820105224554246e-09,0,1.820105224554246e-09,8.318084609242774e-08
1.820175374257076e-09,0,1.820175374257076e-09,0,1.820175374257076e-09,8.766902984589442e-08
1.820315673662737e-09,0,1.820315673662737e-09,0,1.820315673662737e-09,9.553176742422271e-08
1.820492478632022e-09,0,1.820492478632022e-09,0,1.820492478632022e-09,1.049065797594207e-07
1.820846088570591e-09,0,1.820846088570591e-09,0,1.820846088570591e-09,1.205592927152791e-07
1.82155330844773e-09,0,1.82155330844773e-09,0,1.82155330844773e-09,1.414138163646605e-07
1.822967748202008e-09,0,1.822967748202008e-09,0,1.822967748202008e-09,1.502110113471281e-07
1.824722430568815e-09,0,1.824722430568815e-09,0,1.824722430568815e-09,1.359488280004696e-07
1.826918411536178e-09,0,1.826918411536178e-09,0,1.826918411536178e-09,9.56995843908639e-08
1.829263946548526e-09,0,1.829263946548526e-09,0,1.829263946548526e-09,4.936708576858197e-08
1.831151502926956e-09,0,1.831151502926956e-09,0,1.831151502926956e-09,1.404923431612335e-08
1.833166692046947e-09,0,1.833166692046947e-09,0,1.833166692046947e-09,-8.746451254812704e-09
1.835732537320366e-09,0,1.835732537320366e-09,0,1.835732537320366e-09,-1.186540485487327e-08
1.839582563015364e-09,0,1.839582563015364e-09,0,1.839582563015364e-09,1.038329205615665e-08
1.845270770393989e-09,0,1.845270770393989e-09,0,1.845270770393989e-09,2.381097357595936e-08
1.851685819883764e-09,0,1.851685819883764e-09,0,1.851685819883764e-09,1.302417921415771e-09
1.856890685395504e-09,0,1.856890685395504e-09,0,1.856890685395504e-09,-3.661243465223491e-08
1.861960696829298e-09,0,1.861960696829298e-09,0,1.861960696829298e-09,8.21692739025569e-09
1.86777153683048e-09,0,1.86777153683048e-09,0,1.86777153683048e-09,1.023945752050841e-07
1.873151869218014e-09,0,1.873151869218014e-09,0,1.873151869218014e-09,1.51051247719736e-07
1.878700421631472e-09,0,1.878700421631472e-09,0,1.878700421631472e-09,1.22250705478878e-07
1.885758722430251e-09,0,1.885758722430251e-09,0,1.885758722430251e-09,5.708153000788171e-08
1.894065353442945e-09,0,1.894065353442945e-09,0,1.894065353442945e-09,2.07246739658173e-08
1.902498335392306e-09,0,1.902498335392306e-09,0,1.902498335392306e-09,7.791668782877883e-08
1.909953863381681e-09,0,1.909953863381681e-09,0,1.909953863381681e-09,1.20000140781713e-07
1.917656060698148e-09,0,1.917656060698148e-09,0,1.917656060698148e-09,1.258944430673543e-07
